(1788185463.252233) can0 0CFE6CEE#001F7FCC00000000
(1788185463.252240) can0 0CFE6CEE#001F7FCC00000000
(1788185463.253232) can0 0CFE6CEE#001F7FCC00000000
(1788185463.253607) can0 0CFE6CEE#001F7FCC00000000
(1788185463.254723) can0 0CFE6CEE#001F7FCC00000000
(1788185463.254950) can0 0CFE6CEE#001F7FCC00000000
(1788185463.255682) can0 0CFE6CEE#001F7FCC00000000
(1788185463.256306) can0 0CFE6CEE#001F7FCC00000000
(1788185463.256857) can0 0CFE6CEE#001F7FCC00000000
(1788185463.257506) can0 0CFE6CEE#001F7FCC00000000
(1788185463.258161) can0 0CFE6CEE#001F7FCC00000000
(1788185463.258777) can0 0CFE6CEE#001F7FCC00000000
(1788185463.259270) can0 0CFE6CEE#001F7FCC00000000
(1788185463.259967) can0 0CFE6CEE#001F7FCC00000000
(1788185463.260662) can0 0CFE6CEE#001F7FCC00000000
(1788185463.261237) can0 0CFE6CEE#001F7FCC00000000
(1788185463.261900) can0 0CFE6CEE#001F7FCC00000000
(1788185463.262443) can0 0CFE6CEE#001F7FCC00000000
(1788185463.263115) can0 0CFE6CEE#001F7FCC00000000
(1788185463.263674) can0 0CFE6CEE#001F7FCC00000000
(1788185463.264376) can0 0CFE6CEE#001F7FCC00000000
(1788185463.264932) can0 0CFE6CEE#001F7FCC00000000
(1788185463.265578) can0 0CFE6CEE#001F7FCC00000000
(1788185463.266126) can0 0CFE6CEE#001F7FCC00000000
(1788185463.266848) can0 0CFE6CEE#001F7FCC00000000
(1788185463.267484) can0 0CFE6CEE#001F7FCC00000000
(1788185463.268070) can0 0CFE6CEE#001F7FCC00000000
(1788185463.268749) can0 0CFE6CEE#001F7FCC00000000
(1788185463.269360) can0 0CFE6CEE#001F7FCC00000000
(1788185463.270021) can0 0CFE6CEE#001F7FCC00000000
(1788185463.270609) can0 0CFE6CEE#001F7FCC00000000
(1788185463.271262) can0 0CFE6CEE#001F7FCC00000000
(1788185463.271885) can0 0CFE6CEE#001F7FCC00000000
(1788185463.272542) can0 0CFE6CEE#001F7FCC00000000
(1788185463.273099) can0 0CFE6CEE#001F7FCC00000000
(1788185463.273793) can0 0CFE6CEE#001F7FCC00000000
(1788185463.274406) can0 0CFE6CEE#001F7FCC00000000
(1788185463.275063) can0 0CFE6CEE#001F7FCC00000000
(1788185463.275703) can0 0CFE6CEE#001F7FCC00000000
(1788185463.276350) can0 0CFE6CEE#001F7FCC00000000
(1788185463.276946) can0 0CFE6CEE#001F7FCC00000000
(1788185463.277579) can0 0CFE6CEE#001F7FCC00000000
(1788185463.278180) can0 0CFE6CEE#001F7FCC00000000
(1788185463.278828) can0 0CFE6CEE#001F7FCC00000000
(1788185463.279488) can0 0CFE6CEE#001F7FCC00000000
(1788185463.280045) can0 0CFE6CEE#001F7FCC00000000
(1788185463.280761) can0 0CFE6CEE#001F7FCC00000000
(1788185463.281349) can0 0CFE6CEE#001F7FCC00000000
(1788185463.282009) can0 0CFE6CEE#001F7FCC00000000
(1788185463.282664) can0 0CFE6CEE#001F7FCC00000000
(1788185463.283277) can0 0CFE6CEE#001F7FCC00000000
(1788185463.283915) can0 0CFE6CEE#001F7FCC00000000
(1788185463.284527) can0 0CFE6CEE#001F7FCC00000000
(1788185463.285129) can0 0CFE6CEE#001F7FCC00000000
(1788185463.285803) can0 0CFE6CEE#001F7FCC00000000
(1788185463.286436) can0 0CFE6CEE#001F7FCC00000000
(1788185463.287054) can0 0CFE6CEE#001F7FCC00000000
(1788185463.287708) can0 0CFE6CEE#001F7FCC00000000
(1788185463.288365) can0 0CFE6CEE#001F7FCC00000000
(1788185463.288976) can0 0CFE6CEE#001F7FCC00000000
(1788185463.289615) can0 0CFE6CEE#001F7FCC00000000
(1788185463.290164) can0 0CFE6CEE#001F7FCC00000000
(1788185463.290816) can0 0CFE6CEE#001F7FCC00000000
(1788185463.291497) can0 0CFE6CEE#001F7FCC00000000
(1788185463.292108) can0 0CFE6CEE#001F7FCC00000000
(1788185463.292740) can0 0CFE6CEE#001F7FCC00000000
(1788185463.293407) can0 0CFE6CEE#001F7FCC00000000
(1788185463.294018) can0 0CFE6CEE#001F7FCC00000000
(1788185463.294656) can0 0CFE6CEE#001F7FCC00000000
(1788185463.295263) can0 0CFE6CEE#001F7FCC00000000
(1788185463.295927) can0 0CFE6CEE#001F7FCC00000000
(1788185463.296536) can0 0CFE6CEE#001F7FCC00000000
(1788185463.297099) can0 0CFE6CEE#001F7FCC00000000
(1788185463.297835) can0 0CFE6CEE#001F7FCC00000000
(1788185463.298447) can0 0CFE6CEE#001F7FCC00000000
(1788185463.299102) can0 0CFE6CEE#001F7FCC00000000
(1788185463.299697) can0 0CFE6CEE#001F7FCC00000000
(1788185463.300351) can0 0CFE6CEE#001F7FCC00000000
(1788185463.300945) can0 0CFE6CEE#001F7FCC00000000
(1788185463.301622) can0 0CFE6CEE#001F7FCC00000000
(1788185463.302178) can0 0CFE6CEE#001F7FCC00000000
(1788185463.302868) can0 0CFE6CEE#001F7FCC00000000
(1788185463.303488) can0 0CFE6CEE#001F7FCC00000000
(1788185463.304082) can0 0CFE6CEE#001F7FCC00000000
(1788185463.304759) can0 0CFE6CEE#001F7FCC00000000
(1788185463.305390) can0 0CFE6CEE#001F7FCC00000000
(1788185463.306010) can0 0CFE6CEE#001F7FCC00000000
(1788185463.306665) can0 0CFE6CEE#001F7FCC00000000
(1788185463.307221) can0 0CFE6CEE#001F7FCC00000000
(1788185463.307915) can0 0CFE6CEE#001F7FCC00000000
(1788185463.308574) can0 0CFE6CEE#001F7FCC00000000
(1788185463.309184) can0 0CFE6CEE#001F7FCC00000000
(1788185463.309801) can0 0CFE6CEE#001F7FCC00000000
(1788185463.310437) can0 0CFE6CEE#001F7FCC00000000
(1788185463.311103) can0 0CFE6CEE#001F7FCC00000000
(1788185463.311708) can0 0CFE6CEE#001F7FCC00000000
(1788185463.312364) can0 0CFE6CEE#001F7FCC00000000
(1788185463.312975) can0 0CFE6CEE#001F7FCC00000000
(1788185463.313614) can0 0CFE6CEE#001F7FCC00000000
(1788185463.314164) can0 0CFE6CEE#001F7FCC00000000
(1788185463.314885) can0 0CFE6CEE#001F7FCC00000000
(1788185463.315494) can0 0CFE6CEE#001F7FCC00000000
(1788185463.316152) can0 0CFE6CEE#001F7FCC00000000
(1788185463.316785) can0 0CFE6CEE#001F7FCC00000000
(1788185463.317402) can0 0CFE6CEE#001F7FCC00000000
(1788185463.318018) can0 0CFE6CEE#001F7FCC00000000
(1788185463.318657) can0 0CFE6CEE#001F7FCC00000000
(1788185463.319359) can0 0CFE6CEE#001F7FCC00000000
(1788185463.319919) can0 0CFE6CEE#001F7FCC00000000
(1788185463.320577) can0 0CFE6CEE#001F7FCC00000000
(1788185463.321182) can0 0CFE6CEE#001F7FCC00000000
(1788185463.321845) can0 0CFE6CEE#001F7FCC00000000
(1788185463.322481) can0 0CFE6CEE#001F7FCC00000000
(1788185463.323057) can0 0CFE6CEE#001F7FCC00000000
(1788185463.323708) can0 0CFE6CEE#001F7FCC00000000
(1788185463.324361) can0 0CFE6CEE#001F7FCC00000000
(1788185463.324976) can0 0CFE6CEE#001F7FCC00000000
(1788185463.325614) can0 0CFE6CEE#001F7FCC00000000
(1788185463.326267) can0 0CFE6CEE#001F7FCC00000000
(1788185463.326884) can0 0CFE6CEE#001F7FCC00000000
(1788185463.327541) can0 0CFE6CEE#001F7FCC00000000
(1788185463.328153) can0 0CFE6CEE#001F7FCC00000000
(1788185463.328789) can0 0CFE6CEE#001F7FCC00000000
(1788185463.329402) can0 0CFE6CEE#001F7FCC00000000
(1788185463.330067) can0 0CFE6CEE#001F7FCC00000000
(1788185463.330700) can0 0CFE6CEE#001F7FCC00000000
(1788185463.331354) can0 0CFE6CEE#001F7FCC00000000
(1788185463.331945) can0 0CFE6CEE#001F7FCC00000000
(1788185463.332579) can0 0CFE6CEE#001F7FCC00000000
(1788185463.333190) can0 0CFE6CEE#001F7FCC00000000
(1788185463.333829) can0 0CFE6CEE#001F7FCC00000000
(1788185463.334489) can0 0CFE6CEE#001F7FCC00000000
(1788185463.335097) can0 0CFE6CEE#001F7FCC00000000
(1788185463.335760) can0 0CFE6CEE#001F7FCC00000000
(1788185463.336353) can0 0CFE6CEE#001F7FCC00000000
(1788185463.337010) can0 0CFE6CEE#001F7FCC00000000
(1788185463.337621) can0 0CFE6CEE#001F7FCC00000000
(1788185463.338221) can0 0CFE6CEE#001F7FCC00000000
(1788185463.338915) can0 0CFE6CEE#001F7FCC00000000
(1788185463.339532) can0 0CFE6CEE#001F7FCC00000000
(1788185463.340139) can0 0CFE6CEE#001F7FCC00000000
(1788185463.340799) can0 0CFE6CEE#001F7FCC00000000
(1788185463.341441) can0 0CFE6CEE#001F7FCC00000000
(1788185463.342053) can0 0CFE6CEE#001F7FCC00000000
(1788185463.342708) can0 0CFE6CEE#001F7FCC00000000
(1788185463.343367) can0 0CFE6CEE#001F7FCC00000000
(1788185463.343932) can0 0CFE6CEE#001F7FCC00000000
(1788185463.344614) can0 0CFE6CEE#001F7FCC00000000
(1788185463.345226) can0 0CFE6CEE#001F7FCC00000000
(1788185463.345846) can0 0CFE6CEE#001F7FCC00000000
(1788185463.346480) can0 0CFE6CEE#001F7FCC00000000
(1788185463.347074) can0 0CFE6CEE#001F7FCC00000000
(1788185463.347748) can0 0CFE6CEE#001F7FCC00000000
(1788185463.348365) can0 0CFE6CEE#001F7FCC00000000
(1788185463.349019) can0 0CFE6CEE#001F7FCC00000000
(1788185463.349657) can0 0CFE6CEE#001F7FCC00000000
(1788185463.350207) can0 0CFE6CEE#001F7FCC00000000
(1788185463.350824) can0 0CFE6CEE#001F7FCC00000000
(1788185463.351542) can0 0CFE6CEE#001F7FCC00000000
(1788185463.352105) can0 0CFE6CEE#001F7FCC00000000
(1788185463.352795) can0 0CFE6CEE#001F7FCC00000000
(1788185463.353446) can0 0CFE6CEE#001F7FCC00000000
(1788185463.354063) can0 0CFE6CEE#001F7FCC00000000
(1788185463.354701) can0 0CFE6CEE#001F7FCC00000000
(1788185463.355356) can0 0CFE6CEE#001F7FCC00000000
(1788185463.355945) can0 0CFE6CEE#001F7FCC00000000
(1788185463.356581) can0 0CFE6CEE#001F7FCC00000000
(1788185463.357178) can0 0CFE6CEE#001F7FCC00000000
(1788185463.357872) can0 0CFE6CEE#001F7FCC00000000
(1788185463.358489) can0 0CFE6CEE#001F7FCC00000000
(1788185463.359082) can0 0CFE6CEE#001F7FCC00000000
(1788185463.359759) can0 0CFE6CEE#001F7FCC00000000
(1788185463.360348) can0 0CFE6CEE#001F7FCC00000000
(1788185463.361010) can0 0CFE6CEE#001F7FCC00000000
(1788185463.361665) can0 0CFE6CEE#001F7FCC00000000
(1788185463.362287) can0 0CFE6CEE#001F7FCC00000000
(1788185463.362920) can0 0CFE6CEE#001F7FCC00000000
(1788185463.363535) can0 0CFE6CEE#001F7FCC00000000
(1788185463.364182) can0 0CFE6CEE#001F7FCC00000000
(1788185463.364800) can0 0CFE6CEE#001F7FCC00000000
(1788185463.365437) can0 0CFE6CEE#001F7FCC00000000
(1788185463.366090) can0 0CFE6CEE#001F7FCC00000000
(1788185463.366709) can0 0CFE6CEE#001F7FCC00000000
(1788185463.367364) can0 0CFE6CEE#001F7FCC00000000
(1788185463.367975) can0 0CFE6CEE#001F7FCC00000000
(1788185463.368614) can0 0CFE6CEE#001F7FCC00000000
(1788185463.369221) can0 0CFE6CEE#001F7FCC00000000
(1788185463.369880) can0 0CFE6CEE#001F7FCC00000000
(1788185463.370498) can0 0CFE6CEE#001F7FCC00000000
(1788185463.371099) can0 0CFE6CEE#001F7FCC00000000
(1788185463.371750) can0 0CFE6CEE#001F7FCC00000000
(1788185463.372409) can0 0CFE6CEE#001F7FCC00000000
(1788185463.373019) can0 0CFE6CEE#001F7FCC00000000
(1788185463.373657) can0 0CFE6CEE#001F7FCC00000000
(1788185463.374354) can0 0CFE6CEE#001F7FCC00000000
(1788185463.374917) can0 0CFE6CEE#001F7FCC00000000
(1788185463.375576) can0 0CFE6CEE#001F7FCC00000000
(1788185463.376127) can0 0CFE6CEE#001F7FCC00000000
(1788185463.376808) can0 0CFE6CEE#001F7FCC00000000
(1788185463.377441) can0 0CFE6CEE#001F7FCC00000000
(1788185463.378064) can0 0CFE6CEE#001F7FCC00000000
(1788185463.378691) can0 0CFE6CEE#001F7FCC00000000
(1788185463.379350) can0 0CFE6CEE#001F7FCC00000000
(1788185463.379946) can0 0CFE6CEE#001F7FCC00000000
(1788185463.380618) can0 0CFE6CEE#001F7FCC00000000
(1788185463.381181) can0 0CFE6CEE#001F7FCC00000000
(1788185463.381874) can0 0CFE6CEE#001F7FCC00000000
(1788185463.382532) can0 0CFE6CEE#001F7FCC00000000
(1788185463.383083) can0 0CFE6CEE#001F7FCC00000000
(1788185463.383756) can0 0CFE6CEE#001F7FCC00000000
(1788185463.384395) can0 0CFE6CEE#001F7FCC00000000
(1788185463.385064) can0 0CFE6CEE#001F7FCC00000000
(1788185463.386291) can0 0CFE6CEE#001F7FCC00000000
(1788185463.386880) can0 0CFE6CEE#001F7FCC00000000
(1788185463.387499) can0 0CFE6CEE#001F7FCC00000000
(1788185463.402137) can0 0CFE6CEE#001F7FCC00000000
(1788185463.422286) can0 0CFE6CEE#001F7FCC00000000
(1788185463.442605) can0 0CFE6CEE#001F7FCC00000000
(1788185463.449085) can0 18FEFC17#FF000100FFFFFFFF
(1788185463.462337) can0 0CFE6CEE#001F7FCC00000000
(1788185463.482317) can0 0CFE6CEE#001F7FCC00000000
(1788185463.502296) can0 0CFE6CEE#001F7FCC00000000
(1788185463.522436) can0 0CFE6CEE#001F7FCC00000000
(1788185463.542382) can0 0CFE6CEE#001F7FCC00000000
(1788185463.562428) can0 0CFE6CEE#001F7FCC00000000
(1788185463.582412) can0 0CFE6CEE#001F7FCC00000000
(1788185463.602457) can0 0CFE6CEE#001F7FCC00000000
(1788185463.622400) can0 0CFE6CEE#001F7FCC00000000
(1788185463.642439) can0 0CFE6CEE#001F7FCC00000000
(1788185463.662417) can0 0CFE6CEE#001F7FCC00000000
(1788185463.682775) can0 0CFE6CEE#001F7FCC00000000
(1788185463.702779) can0 0CFE6CEE#001F7FCC00000000
(1788185463.722544) can0 0CFE6CEE#001F7FCC00000000
(1788185463.742539) can0 0CFE6CEE#001F7FCC00000000
(1788185463.762654) can0 0CFE6CEE#001F7FCC00000000
(1788185463.782771) can0 0CFE6CEE#001F7FCC00000000
(1788185463.783558) can0 18FEC1EE#482FDB0278870000
(1788185463.802811) can0 0CFE6CEE#001F7FCC00000000
(1788185463.822535) can0 0CFE6CEE#001F7FCC00000000
(1788185463.842897) can0 0CFE6CEE#001F7FCC00000000
(1788185463.862926) can0 0CFE6CEE#001F7FCC00000000
(1788185463.882819) can0 0CFE6CEE#001F7FCC00000000
(1788185463.902947) can0 0CFE6CEE#001F7FCC00000000
(1788185463.922977) can0 0CFE6CEE#001F7FCC00000000
(1788185463.943004) can0 0CFE6CEE#001F7FCC00000000
(1788185463.962994) can0 0CFE6CEE#001F7FCC00000000
(1788185463.982891) can0 0CFE6CEE#001F7FCC00000000
(1788185464.003034) can0 0CFE6CEE#001F7FCC00000000
(1788185464.023050) can0 0CFE6CEE#001F7FCC00000000
(1788185464.042664) can0 0CFE6CEE#001F7FCC00000000
(1788185464.062700) can0 0CFE6CEE#001F7FCC00000000
(1788185464.066534) can0 0CF00400#6E7D7F0000000F7D
(1788185464.082810) can0 0CFE6CEE#001F7FCC00000000
(1788185464.086340) can0 0CF00400#6E7D7F0000000F7D
(1788185464.095814) can0 18FEF200#00000000F70EFFFF
(1788185464.103131) can0 0CFE6CEE#001F7FCC00000000
(1788185464.106299) can0 0CF00400#6E7D7F0000000F7D
(1788185464.123078) can0 0CFE6CEE#001F7FCC00000000
(1788185464.126385) can0 0CF00400#6E7D7F0000000F7D
(1788185464.142678) can0 0CFE6CEE#001F7FCC00000000
(1788185464.146703) can0 0CF00400#6E7D7F0000000F7D
(1788185464.162707) can0 0CFE6CEE#001F7FCC00000000
(1788185464.166492) can0 0CF00400#6E7D7F0000000F7D
(1788185464.182944) can0 0CFE6CEE#001F7FCC00000000
(1788185464.186527) can0 0CF00400#6E7D7F0000000F7D
(1788185464.195817) can0 18FEF200#00000000F80EFFFF
(1788185464.202718) can0 0CFE6CEE#001F7FCC00000000
(1788185464.206395) can0 0CF00400#6E7D7F0000000F7D
(1788185464.222715) can0 0CFE6CEE#001F7FCC00000000
(1788185464.226364) can0 0CF00400#6E7D7F0000000F7D
(1788185464.231244) can0 18ECFF00#20220005FFE3FE00
(1788185464.242746) can0 0CFE6CEE#001F7FCC00000000
(1788185464.246713) can0 0CF00400#6E7D7F0000000F7D
(1788185464.262770) can0 0CFE6CEE#001F7FCC00000000
(1788185464.265589) can0 18FEEF00#FAFFFF00FFFFFFFF
(1788185464.266754) can0 0CF00400#6E7D7F0000000F7D
(1788185464.282947) can0 0CFE6CEE#001F7FCC00000000
(1788185464.286483) can0 0CF00400#6E7D7F0000000F7D
(1788185464.287066) can0 18EBFF00#017017A73052A940
(1788185464.295813) can0 18FEF200#00000000F70EFFFF
(1788185464.302763) can0 0CFE6CEE#001F7FCC00000000
(1788185464.306403) can0 0CF00400#6E7D7F0000000F7D
(1788185464.322811) can0 0CFE6CEE#001F7FCC00000000
(1788185464.326300) can0 0CF00400#6E7D7F0000000F7D
(1788185464.342800) can0 0CFE6CEE#001F7FCC00000000
(1788185464.344053) can0 18EBFF00#021FB0A028AC2035
(1788185464.346712) can0 0CF00400#6E7D7F0000000F7D
(1788185464.362833) can0 0CFE6CEE#001F7FCC00000000
(1788185464.366499) can0 0CF00400#6E7D7F0000000F7D
(1788185464.382938) can0 0CFE6CEE#001F7FCC00000000
(1788185464.386469) can0 0CF00400#6E7D7F0000000F7D
(1788185464.395799) can0 18FEF200#00000000F70EFFFF
(1788185464.397504) can0 18EBFF00#03AA6059FFFFEE02
(1788185464.400005) can0 18FEF700#FFFFFFFFE601FFFF
(1788185464.402856) can0 0CFE6CEE#001F7FCC00000000
(1788185464.406428) can0 0CF00400#6E7D7F0000000F7D
(1788185464.422834) can0 0CFE6CEE#001F7FCC00000000
(1788185464.426405) can0 0CF00400#6E7D7F0000000F7D
(1788185464.442836) can0 0CFE6CEE#001F7FCC00000000
(1788185464.445052) can0 18FEEE00#36FFFFFFFFFFFFFF
(1788185464.446669) can0 0CF00400#6E7D7F0000000F7D
(1788185464.449634) can0 18FEFC17#FF000000FFFFFFFF
(1788185464.451916) can0 18EBFF00#0498623C3CFA7DAC
(1788185464.462883) can0 0CFE6CEE#001F7FCC00000000
(1788185464.466551) can0 0CF00400#6E7D7F0000000F7D
(1788185464.482928) can0 0CFE6CEE#001F7FCC00000000
(1788185464.486493) can0 0CF00400#6E7D7F0000000F7D
(1788185464.495837) can0 18FEF200#00000000F70EFFFF
(1788185464.502879) can0 0CFE6CEE#001F7FCC00000000
(1788185464.506360) can0 0CF00400#6E7D7F0000000F7D
(1788185464.506956) can0 18EBFF00#0560597700FFFFFF
(1788185464.522904) can0 0CFE6CEE#001F7FCC00000000
(1788185464.526401) can0 0CF00400#6E7D7F0000000F7D
(1788185464.535894) can0 18FEF500#C9FFFFFFFFFFFFFF
(1788185464.542926) can0 0CFE6CEE#001F7FCC00000000
(1788185464.546750) can0 0CF00400#6E7D7F0000000F7D
(1788185464.557005) can0 18FEF200#00000000F80EFFFF
(1788185464.562912) can0 0CFE6CEE#001F7FCC00000000
(1788185464.566527) can0 0CF00400#6E7D7F0000000F7D
(1788185464.582984) can0 0CFE6CEE#001F7FCC00000000
(1788185464.586608) can0 0CF00400#6E7D7F0000000F7D
(1788185464.595805) can0 18FEF200#00000000F70EFFFF
(1788185464.603349) can0 0CFE6CEE#001F7FCC00000000
(1788185464.605691) can0 18FECA00#43FFFB000201FFFF
(1788185464.606772) can0 0CF00400#6E7D7F0000000F7D
(1788185464.623013) can0 0CFE6CEE#001F7FCC00000000
(1788185464.626446) can0 0CF00400#6E7D7F0000000F7D
(1788185464.642973) can0 0CFE6CEE#001F7FCC00000000
(1788185464.646771) can0 0CF00400#6E7D7F0000000F7D
(1788185464.662970) can0 0CFE6CEE#001F7FCC00000000
(1788185464.666500) can0 0CF00400#6E7D7F0000000F7D
(1788185464.670052) can0 18ECFF00#20220005FFE3FE00
(1788185464.683483) can0 0CFE6CEE#001F7FCC00000000
(1788185464.686555) can0 0CF00400#6E7D7F0000000F7D
(1788185464.695857) can0 18FEF200#00000000F70EFFFF
(1788185464.702986) can0 0CFE6CEE#001F7FCC00000000
(1788185464.706490) can0 0CF00400#6E7D7F0000000F7D
(1788185464.723008) can0 0CFE6CEE#001F7FCC00000000
(1788185464.724011) can0 18EBFF00#017017A73052A940
(1788185464.726365) can0 0CF00400#6E7D7F0000000F7D
(1788185464.743129) can0 0CFE6CEE#001F7FCC00000000
(1788185464.746673) can0 0CF00400#6E7D7F0000000F7D
(1788185464.763060) can0 0CFE6CEE#001F7FCC00000000
(1788185464.765568) can0 18FEEF00#FAFFFF00FFFFFFFF
(1788185464.766770) can0 0CF00400#6E7D7F0000000F7D
(1788185464.777560) can0 18EBFF00#021FB0A028AC2035
(1788185464.782878) can0 18FEC1EE#482FDB0278870000
(1788185464.783593) can0 0CFE6CEE#001F7FCC00000000
(1788185464.786715) can0 0CF00400#6E7D7F0000000F7D
(1788185464.795755) can0 18FEF200#00000000F70EFFFF
(1788185464.803022) can0 0CFE6CEE#001F7FCC00000000
(1788185464.806480) can0 0CF00400#6E7D7F0000000F7D
(1788185464.823020) can0 0CFE6CEE#001F7FCC00000000
(1788185464.826400) can0 0CF00400#6E7D7F0000000F7D
(1788185464.831035) can0 18EBFF00#03AA6059FFFFEE02
(1788185464.843059) can0 0CFE6CEE#001F7FCC00000000
(1788185464.846673) can0 0CF00400#6E7D7F0000000F7D
(1788185464.863100) can0 0CFE6CEE#001F7FCC00000000
(1788185464.866451) can0 0CF00400#6E7D7F0000000F7D
(1788185464.883067) can0 0CFE6CEE#001F7FCC00000000
(1788185464.886505) can0 0CF00400#6E7D7F0000000F7D
(1788185464.886996) can0 18EBFF00#0498623C3CFA7DAC
(1788185464.895847) can0 18FEF200#00000000F80EFFFF
(1788185464.903113) can0 0CFE6CEE#001F7FCC00000000
(1788185464.906490) can0 0CF00400#6E7D7F0000000F7D
(1788185464.923163) can0 0CFE6CEE#001F7FCC00000000
(1788185464.926422) can0 0CF00400#6E7D7F0000000F7D
(1788185464.943143) can0 0CFE6CEE#001F7FCC00000000
(1788185464.944108) can0 18EBFF00#0560597700FFFFFF
(1788185464.944638) can0 18ECFF00#202C0007FFEBFE00
(1788185464.946676) can0 0CF00400#6E7D7F0000000F7D
(1788185464.963164) can0 0CFE6CEE#001F7FCC00000000
(1788185464.966503) can0 0CF00400#6E7D7F0000000F7D
(1788185464.983089) can0 0CFE6CEE#001F7FCC00000000
(1788185464.986598) can0 0CF00400#6E7D7F0000000F7D
(1788185464.995852) can0 18FEF200#00000000F70EFFFF
(1788185464.997500) can0 18EBFF00#0142343500002A34
(1788185465.003190) can0 0CFE6CEE#001F7FCC00000000
(1788185465.006491) can0 0CF00400#6E7D7F0000000F7D
(1788185465.023199) can0 0CFE6CEE#001F7FCC00000000
(1788185465.026406) can0 0CF00400#6E7D7F0000000F7D
(1788185465.043203) can0 0CFE6CEE#001F7FCC00000000
(1788185465.046665) can0 0CF00400#6E7D7F0000000F7D
(1788185465.050756) can0 18EBFF00#0246206530344430
(1788185465.063205) can0 0CFE6CEE#001F7FCC00000000
(1788185465.066514) can0 0CF00400#6E7D7F0000000F7D
(1788185465.083259) can0 0CFE6CEE#001F7FCC00000000
(1788185465.086576) can0 0CF00400#6E7D7F0000000F7D
(1788185465.095828) can0 18FEF200#00000000F70EFFFF
(1788185465.103215) can0 0CFE6CEE#001F7FCC00000000
(1788185465.106510) can0 0CF00400#6E7D7F0000000F7D
(1788185465.107033) can0 18EBFF00#0333382020202020
(1788185465.123249) can0 0CFE6CEE#001F7FCC00000000
(1788185465.126405) can0 0CF00400#6E7D7F0000000F7D
(1788185465.143309) can0 0CFE6CEE#001F7FCC00000000
(1788185465.146723) can0 0CF00400#6E7D7F0000000F7D
(1788185465.163297) can0 0CFE6CEE#001F7FCC00000000
(1788185465.164077) can0 18EBFF00#0420202A30303030
(1788185465.166508) can0 0CF00400#6E7D7F0000000F7D
(1788185465.183188) can0 0CFE6CEE#001F7FCC00000000
(1788185465.186542) can0 0CF00400#6E7D7F0000000F7D
(1788185465.195846) can0 18FEF200#00000000F70EFFFF
(1788185465.203300) can0 0CFE6CEE#001F7FCC00000000
(1788185465.206444) can0 0CF00400#6E7D7F0000000F7D
(1788185465.217507) can0 18EBFF00#05303030302A2A2A
(1788185465.223306) can0 0CFE6CEE#001F7FCC00000000
(1788185465.226383) can0 0CF00400#6E7D7F0000000F7D
(1788185465.243282) can0 0CFE6CEE#001F7FCC00000000
(1788185465.246648) can0 0CF00400#6E7D7F0000000F7D
(1788185465.263316) can0 0CFE6CEE#001F7FCC00000000
(1788185465.265615) can0 18FEEF00#FAFFFF00FFFFFFFF
(1788185465.266801) can0 0CF00400#6E7D7F0000000F7D
(1788185465.270683) can0 18EBFF00#062A2A2A2A2A2A2A
(1788185465.283377) can0 0CFE6CEE#001F7FCC00000000
(1788185465.286518) can0 0CF00400#6E7D7F0000000F7D
(1788185465.295844) can0 18FEF200#00000000F80EFFFF
(1788185465.303371) can0 0CFE6CEE#001F7FCC00000000
(1788185465.306521) can0 0CF00400#6E7D7F0000000F7D
(1788185465.323380) can0 0CFE6CEE#001F7FCC00000000
(1788185465.326523) can0 0CF00400#6E7D7F0000000F7D
(1788185465.327005) can0 18EBFF00#072A2AFFFFFFFFFF
(1788185465.343428) can0 0CFE6CEE#001F7FCC00000000
(1788185465.346695) can0 0CF00400#6E7D7F0000000F7D
(1788185465.363421) can0 0CFE6CEE#001F7FCC00000000
(1788185465.366561) can0 0CF00400#6E7D7F0000000F7D
(1788185465.383316) can0 0CFE6CEE#001F7FCC00000000
(1788185465.386571) can0 0CF00400#6E7D7F0000000F7D
(1788185465.395774) can0 18FEF200#00000000F70EFFFF
(1788185465.399905) can0 18FEF700#FFFFFFFFE601FFFF
(1788185465.403233) can0 0CFE6CEE#001F7FCC00000000
(1788185465.406389) can0 0CF00400#6E7D7F0000000F7D
(1788185465.423343) can0 0CFE6CEE#001F7FCC00000000
(1788185465.426470) can0 0CF00400#6E7D7F0000000F7D
(1788185465.443332) can0 0CFE6CEE#001F7FCC00000000
(1788185465.444978) can0 18FEEE00#36FFFFFFFFFFFFFF
(1788185465.446560) can0 0CF00400#6E7D7F0000000F7D
(1788185465.449554) can0 18FEFC17#FF000000FFFFFFFF
(1788185465.463315) can0 0CFE6CEE#001F7FCC00000000
(1788185465.466436) can0 0CF00400#6E7D7F0000000F7D
(1788185465.483534) can0 0CFE6CEE#001F7FCC00000000
(1788185465.486574) can0 0CF00400#6E7D7F0000000F7D
(1788185465.495910) can0 18FEF200#00000000F70EFFFF
(1788185465.503417) can0 0CFE6CEE#001F7FCC00000000
(1788185465.506476) can0 0CF00400#6E7D7F0000000F7D
(1788185465.523496) can0 0CFE6CEE#001F7FCC00000000
(1788185465.526431) can0 0CF00400#6E7D7F0000000F7D
(1788185465.535954) can0 18FEF500#C9FFFFFFFFFFFFFF
(1788185465.543495) can0 0CFE6CEE#001F7FCC00000000
(1788185465.546651) can0 0CF00400#6E7D7F0000000F7D
(1788185465.563541) can0 0CFE6CEE#001F7FCC00000000
(1788185465.566560) can0 0CF00400#6E7D7F0000000F7D
(1788185465.583534) can0 0CFE6CEE#001F7FCC00000000
(1788185465.586642) can0 0CF00400#6E7D7F0000000F7D
(1788185465.595953) can0 18FEF200#00000000F70EFFFF
(1788185465.603563) can0 0CFE6CEE#001F7FCC00000000
(1788185465.605738) can0 18FECA00#43FFFB000201FFFF
(1788185465.606569) can0 0CF00400#6E7D7F0000000F7D
(1788185465.623567) can0 0CFE6CEE#001F7FCC00000000
(1788185465.626472) can0 0CF00400#6E7D7F0000000F7D
(1788185465.643609) can0 0CFE6CEE#001F7FCC00000000
(1788185465.646685) can0 0CF00400#6E7D7F0000000F7D
(1788185465.663611) can0 0CFE6CEE#001F7FCC00000000
(1788185465.666449) can0 0CF00400#6E7D7F0000000F7D
(1788185465.683546) can0 0CFE6CEE#001F7FCC00000000
(1788185465.686515) can0 0CF00400#6E7D7F0000000F7D
(1788185465.695792) can0 18FEF200#00000000F80EFFFF
(1788185465.703552) can0 0CFE6CEE#001F7FCC00000000
(1788185465.706311) can0 0CF00400#6E7D7F0000000F7D
(1788185465.723520) can0 0CFE6CEE#001F7FCC00000000
(1788185465.726405) can0 0CF00400#6E7D7F0000000F7D
(1788185465.743511) can0 0CFE6CEE#001F7FCC00000000
(1788185465.746645) can0 0CF00400#6E7D7F0000000F7D
(1788185465.763528) can0 0CFE6CEE#001F7FCC00000000
(1788185465.765603) can0 18FEEF00#FAFFFF00FFFFFFFF
(1788185465.766737) can0 0CF00400#6E7D7F0000000F7D
(1788185465.778016) can0 18ECFF00#202C0007FFEBFE00
(1788185465.783571) can0 18FEC1EE#482FDB0278870000
(1788185465.784056) can0 0CFE6CEE#001F7FCC00000000
(1788185465.786651) can0 0CF00400#6E7D7F0000000F7D
(1788185465.795779) can0 18FEF200#00000000F70EFFFF
(1788185465.803568) can0 0CFE6CEE#001F7FCC00000000
(1788185465.806312) can0 0CF00400#6E7D7F0000000F7D
(1788185465.823568) can0 0CFE6CEE#001F7FCC00000000
(1788185465.826381) can0 0CF00400#6E7D7F0000000F7D
(1788185465.831063) can0 18EBFF00#0142343500002A34
(1788185465.843605) can0 0CFE6CEE#001F7FCC00000000
(1788185465.846662) can0 0CF00400#6E7D7F0000000F7D
(1788185465.863597) can0 0CFE6CEE#001F7FCC00000000
(1788185465.866521) can0 0CF00400#6E7D7F0000000F7D
(1788185465.883598) can0 0CFE6CEE#001F7FCC00000000
(1788185465.886526) can0 0CF00400#6E7D7F0000000F7D
(1788185465.887058) can0 18EBFF00#0246206530344430
(1788185465.895788) can0 18FEF200#00000000F70EFFFF
(1788185465.903649) can0 0CFE6CEE#001F7FCC00000000
(1788185465.906331) can0 0CF00400#6E7D7F0000000F7D
(1788185465.923656) can0 0CFE6CEE#001F7FCC00000000
(1788185465.926398) can0 0CF00400#6E7D7F0000000F7D
(1788185465.943657) can0 0CFE6CEE#001F7FCC00000000
(1788185465.944224) can0 18EBFF00#0333382020202020
(1788185465.946551) can0 0CF00400#6E7D7F0000000F7D
(1788185465.963644) can0 0CFE6CEE#001F7FCC00000000
(1788185465.966485) can0 0CF00400#6E7D7F0000000F7D
(1788185465.983658) can0 0CFE6CEE#001F7FCC00000000
(1788185465.986520) can0 0CF00400#6E7D7F0000000F7D
(1788185465.995775) can0 18FEF200#00000000F70EFFFF
(1788185465.997480) can0 18EBFF00#0420202A30303030
(1788185466.003709) can0 0CFE6CEE#001F7FCC00000000
(1788185466.006330) can0 0CF00400#6E7D7F0000000F7D
(1788185466.023689) can0 0CFE6CEE#001F7FCC00000000
(1788185466.026387) can0 0CF00400#6E7D7F0000000F7D
(1788185466.043708) can0 0CFE6CEE#001F7FCC00000000
(1788185466.046564) can0 0CF00400#6E7D7F0000000F7D
(1788185466.050686) can0 18EBFF00#05303030302A2A2A
(1788185466.063730) can0 0CFE6CEE#001F7FCC00000000
(1788185466.066482) can0 0CF00400#6E7D7F0000000F7D
(1788185466.083728) can0 0CFE6CEE#001F7FCC00000000
(1788185466.086487) can0 0CF00400#6E7D7F0000000F7D
(1788185466.095822) can0 18FEF200#00000000F80EFFFF
(1788185466.103744) can0 0CFE6CEE#001F7FCC00000000
(1788185466.106466) can0 0CF00400#6E7D7F0000000F7D
(1788185466.106972) can0 18EBFF00#062A2A2A2A2A2A2A
(1788185466.123741) can0 0CFE6CEE#001F7FCC00000000
(1788185466.126395) can0 0CF00400#6E7D7F0000000F7D
(1788185466.143751) can0 0CFE6CEE#001F7FCC00000000
(1788185466.146568) can0 0CF00400#6E7D7F0000000F7D
(1788185466.163778) can0 0CFE6CEE#001F7FCC00000000
(1788185466.164395) can0 18EBFF00#072A2AFFFFFFFFFF
(1788185466.166520) can0 0CF00400#6E7D7F0000000F7D
(1788185466.183820) can0 0CFE6CEE#001F7FCC00000000
(1788185466.186571) can0 0CF00400#6E7D7F0000000F7D
(1788185466.195821) can0 18FEF200#00000000F70EFFFF
(1788185466.203797) can0 0CFE6CEE#001F7FCC00000000
(1788185466.206457) can0 0CF00400#6E7D7F0000000F7D
(1788185466.223817) can0 0CFE6CEE#001F7FCC00000000
(1788185466.226390) can0 0CF00400#6E7D7F0000000F7D
(1788185466.243853) can0 0CFE6CEE#001F7FCC00000000
(1788185466.246556) can0 0CF00400#6E7D7F0000000F7D
(1788185466.263814) can0 0CFE6CEE#001F7FCC00000000
(1788185466.265611) can0 18FEEF00#FAFFFF00FFFFFFFF
(1788185466.266775) can0 0CF00400#6E7D7F0000000F7D
(1788185466.283862) can0 0CFE6CEE#001F7FCC00000000
(1788185466.286574) can0 0CF00400#6E7D7F0000000F7D
(1788185466.295829) can0 18FEF200#00000000F70EFFFF
(1788185466.303853) can0 0CFE6CEE#001F7FCC00000000
(1788185466.306425) can0 0CF00400#6E7D7F0000000F7D
(1788185466.323879) can0 0CFE6CEE#001F7FCC00000000
(1788185466.326323) can0 0CF00400#6E7D7F0000000F7D
(1788185466.343878) can0 0CFE6CEE#001F7FCC00000000
(1788185466.346556) can0 0CF00400#6E7D7F0000000F7D
(1788185466.356961) can0 18FEF200#00000000F70EFFFF
(1788185466.363915) can0 0CFE6CEE#001F7FCC00000000
(1788185466.366520) can0 0CF00400#6E7D7F0000000F7D
(1788185466.383851) can0 0CFE6CEE#001F7FCC00000000
(1788185466.386649) can0 0CF00400#6E7D7F0000000F7D
(1788185466.395819) can0 18FEF200#00000000F80EFFFF
(1788185466.400042) can0 18FEF700#FFFFFFFFE601FFFF
(1788185466.403925) can0 0CFE6CEE#001F7FCC00000000
(1788185466.406432) can0 0CF00400#6E7D7F0000000F7D
(1788185466.423947) can0 0CFE6CEE#001F7FCC00000000
(1788185466.426389) can0 0CF00400#6E7D7F0000000F7D
(1788185466.443925) can0 0CFE6CEE#001F7FCC00000000
(1788185466.445079) can0 18FEEE00#36FFFFFFFFFFFFFF
(1788185466.446556) can0 0CF00400#6E7D7F0000000F7D
(1788185466.449490) can0 18FEFC17#FF000000FFFFFFFF
(1788185466.463949) can0 0CFE6CEE#001F7FCC00000000
(1788185466.466488) can0 0CF00400#6E7D7F0000000F7D
(1788185466.483982) can0 0CFE6CEE#001F7FCC00000000
(1788185466.486530) can0 0CF00400#6E7D7F0000000F7D
(1788185466.495827) can0 18FEF200#00000000F70EFFFF
(1788185466.503993) can0 0CFE6CEE#001F7FCC00000000
(1788185466.506480) can0 0CF00400#6E7D7F0000000F7D
(1788185466.524014) can0 0CFE6CEE#001F7FCC00000000
(1788185466.526430) can0 0CF00400#6E7D7F0000000F7D
(1788185466.535910) can0 18FEF500#C9FFFFFFFFFFFFFF
(1788185466.543995) can0 0CFE6CEE#001F7FCC00000000
(1788185466.546556) can0 0CF00400#6E7D7F0000000F7D
(1788185466.564012) can0 0CFE6CEE#001F7FCC00000000
(1788185466.566522) can0 0CF00400#6E7D7F0000000F7D
(1788185466.584036) can0 0CFE6CEE#001F7FCC00000000
(1788185466.586649) can0 0CF00400#6E7D7F0000000F7D
(1788185466.595849) can0 18FEF200#00000000F70EFFFF
(1788185466.604070) can0 0CFE6CEE#001F7FCC00000000
(1788185466.605693) can0 18FECA00#43FFFB000201FFFF
(1788185466.606566) can0 0CF00400#6E7D7F0000000F7D
(1788185466.624061) can0 0CFE6CEE#001F7FCC00000000
(1788185466.626459) can0 0CF00400#6E7D7F0000000F7D
(1788185466.644098) can0 0CFE6CEE#001F7FCC00000000
(1788185466.646574) can0 0CF00400#6E7D7F0000000F7D
(1788185466.664091) can0 0CFE6CEE#001F7FCC00000000
(1788185466.666531) can0 0CF00400#6E7D7F0000000F7D
(1788185466.684044) can0 0CFE6CEE#001F7FCC00000000
(1788185466.686602) can0 0CF00400#6E7D7F0000000F7D
(1788185466.695890) can0 18FEF200#00000000F70EFFFF
(1788185466.704096) can0 0CFE6CEE#001F7FCC00000000
(1788185466.706479) can0 0CF00400#6E7D7F0000000F7D
(1788185466.724093) can0 0CFE6CEE#001F7FCC00000000
(1788185466.726640) can0 0CF00400#6E7D7F0000000F7D
(1788185466.744242) can0 0CFE6CEE#001F7FCC00000000
(1788185466.746660) can0 0CF00400#6E7D7F0000000F7D
(1788185466.764239) can0 0CFE6CEE#001F7FCC00000000
(1788185466.765749) can0 18FEEF00#FAFFFF00FFFFFFFF
(1788185466.766914) can0 0CF00400#6E7D7F0000000F7D
(1788185466.778129) can0 18ECFF00#202C0007FFEBFE00
(1788185466.784232) can0 18FEC1EE#482FDB0278870000
(1788185466.784895) can0 0CFE6CEE#001F7FCC00000000
(1788185466.786905) can0 0CF00400#6E7D7F0000000F7D
(1788185466.795826) can0 18FEF200#00000000F70EFFFF
(1788185466.804140) can0 0CFE6CEE#001F7FCC00000000
(1788185466.806724) can0 0CF00400#6E7D7F0000000F7D
(1788185466.824137) can0 0CFE6CEE#001F7FCC00000000
(1788185466.826654) can0 0CF00400#6E7D7F0000000F7D
(1788185466.831750) can0 18EBFF00#0142343500002A34
(1788185466.844372) can0 0CFE6CEE#001F7FCC00000000
(1788185466.846759) can0 0CF00400#6E7D7F0000000F7D
(1788185466.864724) can0 0CFE6CEE#001F7FCC00000000
(1788185466.866646) can0 0CF00400#6E7D7F0000000F7D
(1788185466.884305) can0 0CFE6CEE#001F7FCC00000000
(1788185466.887124) can0 0CF00400#6E7D7F0000000F7D
(1788185466.887133) can0 18EBFF00#0246206530344430
(1788185466.895827) can0 18FEF200#00000000F80EFFFF
(1788185466.904265) can0 0CFE6CEE#001F7FCC00000000
(1788185466.907096) can0 0CF00400#6E7D7F0000000F7D
(1788185466.924285) can0 0CFE6CEE#001F7FCC00000000
(1788185466.926617) can0 0CF00400#6E7D7F0000000F7D
(1788185466.944621) can0 18EBFF00#0333382020202020
(1788185466.944627) can0 0CFE6CEE#001F7FCC00000000
(1788185466.946673) can0 0CF00400#6E7D7F0000000F7D
(1788185466.964316) can0 0CFE6CEE#001F7FCC00000000
(1788185466.966827) can0 0CF00400#6E7D7F0000000F7D
(1788185466.984317) can0 0CFE6CEE#001F7FCC00000000
(1788185466.986632) can0 0CF00400#6E7D7F0000000F7D
(1788185466.995906) can0 18FEF200#00000000F70EFFFF
(1788185466.997743) can0 18EBFF00#0420202A30303030
(1788185467.004290) can0 0CFE6CEE#001F7FCC00000000
(1788185467.006636) can0 0CF00400#6E7D7F0000000F7D
(1788185467.024775) can0 0CFE6CEE#001F7FCC00000000
(1788185467.026653) can0 0CF00400#6E7D7F0000000F7D
(1788185467.044309) can0 0CFE6CEE#001F7FCC00000000
(1788185467.046991) can0 0CF00400#6E7D7F0000000F7D
(1788185467.050773) can0 18EBFF00#05303030302A2A2A
(1788185467.064840) can0 0CFE6CEE#001F7FCC00000000
(1788185467.066684) can0 0CF00400#6E7D7F0000000F7D
(1788185467.084380) can0 0CFE6CEE#001F7FCC00000000
(1788185467.086736) can0 0CF00400#6E7D7F0000000F7D
(1788185467.096012) can0 18FEF200#00000000F70EFFFF
(1788185467.104468) can0 0CFE6CEE#001F7FCC00000000
(1788185467.106864) can0 0CF00400#6E7D7F0000000F7D
(1788185467.106951) can0 18EBFF00#062A2A2A2A2A2A2A
(1788185467.124542) can0 0CFE6CEE#001F7FCC00000000
(1788185467.126577) can0 0CF00400#6E7D7F0000000F7D
(1788185467.144499) can0 0CFE6CEE#001F7FCC00000000
(1788185467.146493) can0 0CF00400#6E7D7F0000000F7D
(1788185467.164637) can0 18EBFF00#072A2AFFFFFFFFFF
(1788185467.164644) can0 0CFE6CEE#001F7FCC00000000
(1788185467.166721) can0 0CF00400#6E7D7F0000000F7D
(1788185467.184566) can0 0CFE6CEE#001F7FCC00000000
(1788185467.187154) can0 0CF00400#6E7D7F0000000F7D
(1788185467.195954) can0 18FEF200#00000000F70EFFFF
(1788185467.204536) can0 0CFE6CEE#001F7FCC00000000
(1788185467.206599) can0 0CF00400#6E7D7F0000000F7D
(1788185467.224510) can0 0CFE6CEE#001F7FCC00000000
(1788185467.226616) can0 0CF00400#6E7D7F0000000F7D
(1788185467.244517) can0 0CFE6CEE#001F7FCC00000000
(1788185467.246623) can0 0CF00400#6E7D7F0000000F7D
(1788185467.264550) can0 0CFE6CEE#001F7FCC00000000
(1788185467.265795) can0 18FEEF00#FAFFFF00FFFFFFFF
(1788185467.266915) can0 0CF00400#6E7D7F0000000F7D
(1788185467.284568) can0 0CFE6CEE#001F7FCC00000000
(1788185467.286721) can0 0CF00400#6E7D7F0000000F7D
(1788185467.296047) can0 18FEF200#00000000F80EFFFF
(1788185467.304566) can0 0CFE6CEE#001F7FCC00000000
(1788185467.306604) can0 0CF00400#6E7D7F0000000F7D
(1788185467.324554) can0 0CFE6CEE#001F7FCC00000000
(1788185467.326608) can0 0CF00400#6E7D7F0000000F7D
(1788185467.344614) can0 0CFE6CEE#001F7FCC00000000
(1788185467.346694) can0 0CF00400#6E7D7F0000000F7D
(1788185467.364602) can0 0CFE6CEE#001F7FCC00000000
(1788185467.366699) can0 0CF00400#6E7D7F0000000F7D
(1788185467.384607) can0 0CFE6CEE#001F7FCC00000000
(1788185467.386718) can0 0CF00400#6E7D7F0000000F7D
(1788185467.395942) can0 18FEF200#00000000F70EFFFF
(1788185467.400188) can0 18FEF700#FFFFFFFFE601FFFF
(1788185467.404634) can0 0CFE6CEE#001F7FCC00000000
(1788185467.406637) can0 0CF00400#6E7D7F0000000F7D
(1788185467.424657) can0 0CFE6CEE#001F7FCC00000000
(1788185467.426574) can0 0CF00400#6E7D7F0000000F7D
(1788185467.444713) can0 0CFE6CEE#001F7FCC00000000
(1788185467.445231) can0 18FEEE00#36FFFFFFFFFFFFFF
(1788185467.446583) can0 0CF00400#6E7D7F0000000F7D
(1788185467.449620) can0 18FEFC17#FF000000FFFFFFFF
(1788185467.464648) can0 0CFE6CEE#001F7FCC00000000
(1788185467.466692) can0 0CF00400#6E7D7F0000000F7D
(1788185467.484650) can0 0CFE6CEE#001F7FCC00000000
(1788185467.486701) can0 0CF00400#6E7D7F0000000F7D
(1788185467.496083) can0 18FEF200#00000000F70EFFFF
(1788185467.504688) can0 0CFE6CEE#001F7FCC00000000
(1788185467.506596) can0 0CF00400#6E7D7F0000000F7D
(1788185467.524711) can0 0CFE6CEE#001F7FCC00000000
(1788185467.526607) can0 0CF00400#6E7D7F0000000F7D
(1788185467.536007) can0 18FEF500#C9FFFFFFFFFFFFFF
(1788185467.544681) can0 0CFE6CEE#001F7FCC00000000
(1788185467.546655) can0 0CF00400#6E7D7F0000000F7D
(1788185467.564723) can0 0CFE6CEE#001F7FCC00000000
(1788185467.566668) can0 0CF00400#6E7D7F0000000F7D
(1788185467.584740) can0 0CFE6CEE#001F7FCC00000000
(1788185467.586854) can0 0CF00400#6E7D7F0000000F7D
(1788185467.596020) can0 18FEF200#00000000F70EFFFF
(1788185467.604781) can0 0CFE6CEE#001F7FCC00000000
(1788185467.605901) can0 18FECA00#43FFFB000201FFFF
(1788185467.606742) can0 0CF00400#6E7D7F0000000F7D
(1788185467.624714) can0 0CFE6CEE#001F7FCC00000000
(1788185467.626654) can0 0CF00400#6E7D7F0000000F7D
(1788185467.644762) can0 0CFE6CEE#001F7FCC00000000
(1788185467.646661) can0 0CF00400#6E7D7F0000000F7D
(1788185467.664779) can0 0CFE6CEE#001F7FCC00000000
(1788185467.666690) can0 0CF00400#6E7D7F0000000F7D
(1788185467.684800) can0 0CFE6CEE#001F7FCC00000000
(1788185467.686732) can0 0CF00400#6E7D7F0000000F7D
(1788185467.696015) can0 18FEF200#00000000F80EFFFF
(1788185467.704796) can0 0CFE6CEE#001F7FCC00000000
(1788185467.706637) can0 0CF00400#6E7D7F0000000F7D
(1788185467.724831) can0 0CFE6CEE#001F7FCC00000000
(1788185467.726675) can0 0CF00400#6E7D7F0000000F7D
(1788185467.744845) can0 0CFE6CEE#001F7FCC00000000
(1788185467.746685) can0 0CF00400#6E7D7F0000000F7D
(1788185467.764862) can0 0CFE6CEE#001F7FCC00000000
(1788185467.766013) can0 18FEEF00#FAFFFF00FFFFFFFF
(1788185467.767099) can0 0CF00400#6E7D7F0000000F7D
(1788185467.778287) can0 18ECFF00#202C0007FFEBFE00
(1788185467.784828) can0 18FEC1EE#482FDB0278870000
(1788185467.785356) can0 0CFE6CEE#001F7FCC00000000
(1788185467.787713) can0 0CF00400#6E7D7F0000000F7D
(1788185467.796063) can0 18FEF200#00000000F70EFFFF
(1788185467.804874) can0 0CFE6CEE#001F7FCC00000000
(1788185467.806651) can0 0CF00400#6E7D7F0000000F7D
(1788185467.824865) can0 0CFE6CEE#001F7FCC00000000
(1788185467.826608) can0 0CF00400#6E7D7F0000000F7D
(1788185467.831420) can0 18EBFF00#0142343500002A34
(1788185467.844870) can0 0CFE6CEE#001F7FCC00000000
(1788185467.846704) can0 0CF00400#6E7D7F0000000F7D
(1788185467.864922) can0 0CFE6CEE#001F7FCC00000000
(1788185467.866691) can0 0CF00400#6E7D7F0000000F7D
(1788185467.884903) can0 0CFE6CEE#001F7FCC00000000
(1788185467.886739) can0 0CF00400#6E7D7F0000000F7D
(1788185467.887346) can0 18EBFF00#0246206530344430
(1788185467.896161) can0 18FEF200#00000000F70EFFFF
(1788185467.904911) can0 0CFE6CEE#001F7FCC00000000
(1788185467.906662) can0 0CF00400#6E7D7F0000000F7D
(1788185467.924968) can0 0CFE6CEE#001F7FCC00000000
(1788185467.926611) can0 0CF00400#6E7D7F0000000F7D
(1788185467.944329) can0 18EBFF00#0333382020202020
(1788185467.944963) can0 0CFE6CEE#001F7FCC00000000
(1788185467.946735) can0 0CF00400#6E7D7F0000000F7D
(1788185467.964905) can0 0CFE6CEE#001F7FCC00000000
(1788185467.966723) can0 0CF00400#6E7D7F0000000F7D
(1788185467.984972) can0 0CFE6CEE#001F7FCC00000000
(1788185467.986884) can0 0CF00400#6E7D7F0000000F7D
(1788185467.996108) can0 18FEF200#00000000F70EFFFF
(1788185467.997756) can0 18EBFF00#0420202A30303030
(1788185468.004981) can0 0CFE6CEE#001F7FCC00000000
(1788185468.006650) can0 0CF00400#6E7D7F0000000F7D
(1788185468.025020) can0 0CFE6CEE#001F7FCC00000000
(1788185468.026648) can0 0CF00400#6E7D7F0000000F7D
(1788185468.044994) can0 0CFE6CEE#001F7FCC00000000
(1788185468.046875) can0 0CF00400#6E7D7F0000000F7D
(1788185468.050982) can0 18EBFF00#05303030302A2A2A
(1788185468.065046) can0 0CFE6CEE#001F7FCC00000000
(1788185468.066745) can0 0CF00400#6E7D7F0000000F7D
(1788185468.085056) can0 0CFE6CEE#001F7FCC00000000
(1788185468.086801) can0 0CF00400#6E7D7F0000000F7D
(1788185468.096113) can0 18FEF200#00000000F80EFFFF
(1788185468.105068) can0 0CFE6CEE#001F7FCC00000000
(1788185468.106677) can0 0CF00400#6E7D7F0000000F7D
(1788185468.107217) can0 18EBFF00#062A2A2A2A2A2A2A
(1788185468.125045) can0 0CFE6CEE#001F7FCC00000000
(1788185468.126676) can0 0CF00400#6E7D7F0000000F7D
(1788185468.145107) can0 0CFE6CEE#001F7FCC00000000
(1788185468.146693) can0 0CF00400#6E7D7F0000000F7D
(1788185468.157278) can0 18FEF200#00000000F70EFFFF
(1788185468.164308) can0 18EBFF00#072A2AFFFFFFFFFF
(1788185468.165122) can0 0CFE6CEE#001F7FCC00000000
(1788185468.166820) can0 0CF00400#6E7D7F0000000F7D
(1788185468.185089) can0 0CFE6CEE#001F7FCC00000000
(1788185468.186829) can0 0CF00400#6E7D7F0000000F7D
(1788185468.196097) can0 18FEF200#00000000F70EFFFF
(1788185468.205110) can0 0CFE6CEE#001F7FCC00000000
(1788185468.206659) can0 0CF00400#6E7D7F0000000F7D
(1788185468.225100) can0 0CFE6CEE#001F7FCC00000000
(1788185468.226689) can0 0CF00400#6E7D7F0000000F7D
(1788185468.245132) can0 0CFE6CEE#001F7FCC00000000
(1788185468.246878) can0 0CF00400#6E7D7F0000000F7D
(1788185468.265119) can0 0CFE6CEE#001F7FCC00000000
(1788185468.266134) can0 18FEEF00#FAFFFF00FFFFFFFF
(1788185468.267494) can0 0CF00400#6E7D7F0000000F7D
(1788185468.285134) can0 0CFE6CEE#001F7FCC00000000
(1788185468.286934) can0 0CF00400#6E7D7F0000000F7D
(1788185468.296134) can0 18FEF200#00000000F70EFFFF
(1788185468.305218) can0 0CFE6CEE#001F7FCC00000000
(1788185468.306664) can0 0CF00400#6E7D7F0000000F7D
(1788185468.325199) can0 0CFE6CEE#001F7FCC00000000
(1788185468.326665) can0 0CF00400#6E7D7F0000000F7D
(1788185468.345201) can0 0CFE6CEE#001F7FCC00000000
(1788185468.346651) can0 0CF00400#6E7D7F0000000F7D
(1788185468.365248) can0 0CFE6CEE#001F7FCC00000000
(1788185468.366955) can0 0CF00400#6E7D7F0000000F7D
(1788185468.385249) can0 0CFE6CEE#001F7FCC00000000
(1788185468.386950) can0 0CF00400#6E7D7F0000000F7D
(1788185468.396072) can0 18FEF200#00000000F80EFFFF
(1788185468.400319) can0 18FEF700#FFFFFFFFE601FFFF
(1788185468.405236) can0 0CFE6CEE#001F7FCC00000000
(1788185468.406704) can0 0CF00400#6E7D7F0000000F7D
(1788185468.425225) can0 0CFE6CEE#001F7FCC00000000
(1788185468.426649) can0 0CF00400#6E7D7F0000000F7D
(1788185468.445229) can0 0CFE6CEE#001F7FCC00000000
(1788185468.445824) can0 18FEEE00#36FFFFFFFFFFFFFF
(1788185468.447028) can0 0CF00400#6E7D7F0000000F7D
(1788185468.449891) can0 18FEFC17#FF710000FFFFFFFF
(1788185468.465286) can0 0CFE6CEE#001F7FCC00000000
(1788185468.467019) can0 0CF00400#6E7D7F0000000F7D
(1788185468.485276) can0 0CFE6CEE#001F7FCC00000000
(1788185468.487001) can0 0CF00400#6E7D7F0000000F7D
(1788185468.496235) can0 18FEF200#00000000F70EFFFF
(1788185468.505319) can0 0CFE6CEE#001F7FCC00000000
(1788185468.506705) can0 0CF00400#6E7D7F0000000F7D
(1788185468.525260) can0 0CFE6CEE#001F7FCC00000000
(1788185468.526686) can0 0CF00400#6E7D7F0000000F7D
(1788185468.536090) can0 18FEF500#C9FFFFFFFFFFFFFF
(1788185468.545329) can0 0CFE6CEE#001F7FCC00000000
(1788185468.546673) can0 0CF00400#6E7D7F0000000F7D
(1788185468.565906) can0 0CFE6CEE#001F7FCC00000000
(1788185468.567053) can0 0CF00400#6E7D7F0000000F7D
(1788185468.585303) can0 0CFE6CEE#001F7FCC00000000
(1788185468.587008) can0 0CF00400#6E7D7F0000000F7D
(1788185468.596022) can0 18FEF200#00000000F70EFFFF
(1788185468.605756) can0 0CFE6CEE#001F7FCC00000000
(1788185468.606411) can0 18FECA00#43FFFB000201FFFF
(1788185468.607110) can0 0CF00400#6E7D7F0000000F7D
(1788185468.625382) can0 0CFE6CEE#001F7FCC00000000
(1788185468.626705) can0 0CF00400#6E7D7F0000000F7D
(1788185468.645354) can0 0CFE6CEE#001F7FCC00000000
(1788185468.646844) can0 0CF00400#6E7D7F0000000F7D
(1788185468.665846) can0 0CFE6CEE#001F7FCC00000000
(1788185468.667036) can0 0CF00400#6E7D7F0000000F7D
(1788185468.685964) can0 0CFE6CEE#001F7FCC00000000
(1788185468.687008) can0 0CF00400#6E7D7F0000000F7D
(1788185468.696133) can0 18FEF200#00000000F70EFFFF
(1788185468.705914) can0 0CFE6CEE#001F7FCC00000000
(1788185468.707083) can0 0CF00400#6E7D7F0000000F7D
(1788185468.725417) can0 0CFE6CEE#001F7FCC00000000
(1788185468.726684) can0 0CF00400#6E7D7F0000000F7D
(1788185468.745837) can0 0CFE6CEE#001F7FCC00000000
(1788185468.746953) can0 0CF00400#6E7D7F0000000F7D
(1788185468.765920) can0 0CFE6CEE#001F7FCC00000000
(1788185468.766563) can0 18FEEF00#FAFFFF00FFFFFFFF
(1788185468.767983) can0 0CF00400#6E7D7F0000000F7D
(1788185468.778304) can0 18ECFF00#202C0007FFEBFE00
(1788185468.785850) can0 0CFE6CEE#001F7FCC00000000
(1788185468.786968) can0 18FEC1EE#482FDB0278870000
(1788185468.787711) can0 0CF00400#6E7D7F0000000F7D
(1788185468.796015) can0 18FEF200#00000000F80EFFFF
(1788185468.805854) can0 0CFE6CEE#001F7FCC00000000
(1788185468.806707) can0 0CF00400#6E7D7F0000000F7D
(1788185468.825914) can0 0CFE6CEE#001F7FCC00000000
(1788185468.827091) can0 0CF00400#6E7D7F0000000F7D
(1788185468.831582) can0 18EBFF00#0142343500002A34
(1788185468.845574) can0 0CFE6CEE#001F7FCC00000000
(1788185468.846790) can0 0CF00400#6E7D7F0000000F7D
(1788185468.865900) can0 0CFE6CEE#001F7FCC00000000
(1788185468.866953) can0 0CF00400#6E7D7F0000000F7D
(1788185468.886059) can0 0CFE6CEE#001F7FCC00000000
(1788185468.887518) can0 0CF00400#6E7D7F0000000F7D
(1788185468.887523) can0 18EBFF00#0246206530344430
(1788185468.896025) can0 18FEF200#00000000F70EFFFF
(1788185468.905822) can0 0CFE6CEE#001F7FCC00000000
(1788185468.907144) can0 0CF00400#6E7D7F0000000F7D
(1788185468.925508) can0 0CFE6CEE#001F7FCC00000000
(1788185468.926772) can0 0CF00400#6E7D7F0000000F7D
(1788185468.944450) can0 18EBFF00#0333382020202020
(1788185468.945913) can0 0CFE6CEE#001F7FCC00000000
(1788185468.947329) can0 0CF00400#6E7D7F0000000F7D
(1788185468.965726) can0 0CFE6CEE#001F7FCC00000000
(1788185468.966928) can0 0CF00400#6E7D7F0000000F7D
(1788185468.985855) can0 0CFE6CEE#001F7FCC00000000
(1788185468.986938) can0 0CF00400#6E7D7F0000000F7D
(1788185468.996067) can0 18FEF200#00000000F70EFFFF
(1788185468.997857) can0 18EBFF00#0420202A30303030
(1788185469.006029) can0 0CFE6CEE#001F7FCC00000000
(1788185469.007197) can0 0CF00400#6E7D7F0000000F7D
(1788185469.025979) can0 0CFE6CEE#001F7FCC00000000
(1788185469.027118) can0 0CF00400#6E7D7F0000000F7D
(1788185469.046016) can0 0CFE6CEE#001F7FCC00000000
(1788185469.046824) can0 0CF00400#6E7D7F0000000F7D
(1788185469.051023) can0 18EBFF00#05303030302A2A2A
(1788185469.065718) can0 0CFE6CEE#001F7FCC00000000
(1788185469.066915) can0 0CF00400#6E7D7F0000000F7D
(1788185469.086018) can0 0CFE6CEE#001F7FCC00000000
(1788185469.087097) can0 0CF00400#6E7D7F0000000F7D
(1788185469.096198) can0 18FEF200#00000000F70EFFFF
(1788185469.105959) can0 0CFE6CEE#001F7FCC00000000
(1788185469.106885) can0 0CF00400#6E7D7F0000000F7D
(1788185469.107254) can0 18EBFF00#062A2A2A2A2A2A2A
(1788185469.125681) can0 0CFE6CEE#001F7FCC00000000
(1788185469.127144) can0 0CF00400#6E7D7F0000000F7D
(1788185469.145824) can0 0CFE6CEE#001F7FCC00000000
(1788185469.146840) can0 0CF00400#6E7D7F0000000F7D
(1788185469.164789) can0 18EBFF00#072A2AFFFFFFFFFF
(1788185469.165987) can0 0CFE6CEE#001F7FCC00000000
(1788185469.166957) can0 0CF00400#6E7D7F0000000F7D
(1788185469.186053) can0 0CFE6CEE#001F7FCC00000000
(1788185469.187159) can0 0CF00400#6E7D7F0000000F7D
(1788185469.196147) can0 18FEF200#00000000F80EFFFF
(1788185469.205794) can0 0CFE6CEE#001F7FCC00000000
(1788185469.207143) can0 0CF00400#6E7D7F0000000F7D
(1788185469.225823) can0 0CFE6CEE#001F7FCC00000000
(1788185469.227162) can0 0CF00400#6E7D7F0000000F7D
(1788185469.246014) can0 0CFE6CEE#001F7FCC00000000
(1788185469.247003) can0 0CF00400#6E7D7F0000000F7D
(1788185469.265893) can0 0CFE6CEE#001F7FCC00000000
(1788185469.266549) can0 18FEEF00#FAFFFF00FFFFFFFF
(1788185469.267669) can0 0CF00400#6E7D7F0000000F7D
(1788185469.285985) can0 0CFE6CEE#001F7FCC00000000
(1788185469.287132) can0 0CF00400#6E7D7F0000000F7D
(1788185469.296180) can0 18FEF200#00000000F70EFFFF
(1788185469.305952) can0 0CFE6CEE#001F7FCC00000000
(1788185469.306774) can0 0CF00400#6E7D7F0000000F7D
(1788185469.325754) can0 0CFE6CEE#001F7FCC00000000
(1788185469.326727) can0 0CF00400#6E7D7F0000000F7D
(1788185469.345765) can0 0CFE6CEE#001F7FCC00000000
(1788185469.346883) can0 0CF00400#6E7D7F0000000F7D
(1788185469.365969) can0 0CFE6CEE#001F7FCC00000000
(1788185469.367103) can0 0CF00400#6E7D7F0000000F7D
(1788185469.386027) can0 0CFE6CEE#001F7FCC00000000
(1788185469.387101) can0 0CF00400#6E7D7F0000000F7D
(1788185469.396125) can0 18FEF200#00000000F70EFFFF
(1788185469.400400) can0 18FEF700#FFFFFFFFE501FFFF
(1788185469.405951) can0 0CFE6CEE#001F7FCC00000000
(1788185469.406788) can0 0CF00400#6E7D7F0000000F7D
(1788185469.425809) can0 0CFE6CEE#001F7FCC00000000
(1788185469.426758) can0 0CF00400#6E7D7F0000000F7D
(1788185469.445404) can0 18FEEE00#36FFFFFFFFFFFFFF
(1788185469.446011) can0 0CFE6CEE#001F7FCC00000000
(1788185469.447073) can0 0CF00400#6E7D7F0000000F7D
(1788185469.450101) can0 18FEFC17#FF710000FFFFFFFF
(1788185469.465939) can0 0CFE6CEE#001F7FCC00000000
(1788185469.467063) can0 0CF00400#6E7D7F0000000F7D
(1788185469.486019) can0 0CFE6CEE#001F7FCC00000000
(1788185469.487066) can0 0CF00400#6E7D7F0000000F7D
(1788185469.496103) can0 18FEF200#00000000F70EFFFF
(1788185469.505957) can0 0CFE6CEE#001F7FCC00000000
(1788185469.506804) can0 0CF00400#6E7D7F0000000F7D
(1788185469.525759) can0 0CFE6CEE#001F7FCC00000000
(1788185469.526751) can0 0CF00400#6E7D7F0000000F7D
(1788185469.536282) can0 18FEF500#C9FFFFFFFFFFFFFF
(1788185469.545885) can0 0CFE6CEE#001F7FCC00000000
(1788185469.546983) can0 0CF00400#6E7D7F0000000F7D
(1788185469.565981) can0 0CFE6CEE#001F7FCC00000000
(1788185469.567104) can0 0CF00400#6E7D7F0000000F7D
(1788185469.586117) can0 0CFE6CEE#001F7FCC00000000
(1788185469.587136) can0 0CF00400#6E7D7F0000000F7D
(1788185469.596231) can0 18FEF200#00000000F70EFFFF
(1788185469.605936) can0 0CFE6CEE#001F7FCC00000000
(1788185469.606533) can0 18FECA00#43FFFB000201FFFF
(1788185469.607090) can0 0CF00400#6E7D7F0000000F7D
(1788185469.625859) can0 0CFE6CEE#001F7FCC00000000
(1788185469.626799) can0 0CF00400#6E7D7F0000000F7D
(1788185469.645921) can0 0CFE6CEE#001F7FCC00000000
(1788185469.647069) can0 0CF00400#6E7D7F0000000F7D
(1788185469.665973) can0 0CFE6CEE#001F7FCC00000000
(1788185469.667136) can0 0CF00400#6E7D7F0000000F7D
(1788185469.670448) can0 18ECFF00#20220005FFE3FE00
(1788185469.686015) can0 0CFE6CEE#001F7FCC00000000
(1788185469.687162) can0 0CF00400#6E7D7F0000000F7D
(1788185469.696213) can0 18FEF200#00000000F80EFFFF
(1788185469.706022) can0 0CFE6CEE#001F7FCC00000000
(1788185469.706809) can0 0CF00400#6E7D7F0000000F7D
(1788185469.724380) can0 18EBFF00#017017A73052A940
(1788185469.725966) can0 0CFE6CEE#001F7FCC00000000
(1788185469.726811) can0 0CF00400#6E7D7F0000000F7D
(1788185469.746216) can0 0CFE6CEE#001F7FCC00000000
(1788185469.747179) can0 0CF00400#6E7D7F0000000F7D
(1788185469.766098) can0 18FEEF00#FAFFFF00FFFFFFFF
(1788185469.766557) can0 0CFE6CEE#001F7FCC00000000
(1788185469.767786) can0 0CF00400#6E7D7F0000000F7D
(1788185469.777853) can0 18EBFF00#021FB0A028AC2035
(1788185469.785881) can0 0CFE6CEE#001F7FCC00000000
(1788185469.787069) can0 18FEC1EE#482FDB0278870000
(1788185469.787790) can0 0CF00400#6E7D7F0000000F7D
(1788185469.796143) can0 18FEF200#00000000F70EFFFF
(1788185469.806175) can0 0CFE6CEE#001F7FCC00000000
(1788185469.807228) can0 0CF00400#6E7D7F0000000F7D
(1788185469.825945) can0 0CFE6CEE#001F7FCC00000000
(1788185469.827223) can0 0CF00400#6E7D7F0000000F7D
(1788185469.831613) can0 18EBFF00#03AA6059FFFFEE02
(1788185469.845960) can0 0CFE6CEE#001F7FCC00000000
(1788185469.847066) can0 0CF00400#6E7D7F0000000F7D
(1788185469.866426) can0 0CFE6CEE#001F7FCC00000000
(1788185469.867005) can0 0CF00400#6E7D7F0000000F7D
(1788185469.886473) can0 0CFE6CEE#001F7FCC00000000
(1788185469.887066) can0 0CF00400#6E7D7F0000000F7D
(1788185469.887610) can0 18EBFF00#0498623C3CFA7DAC
(1788185469.896146) can0 18FEF200#00000000F70EFFFF
(1788185469.906191) can0 0CFE6CEE#001F7FCC00000000
(1788185469.906844) can0 0CF00400#6E7D7F0000000F7D
(1788185469.926197) can0 0CFE6CEE#001F7FCC00000000
(1788185469.926704) can0 0CF00400#6E7D7F0000000F7D
(1788185469.944583) can0 18EBFF00#0560597700FFFFFF
(1788185469.944875) can0 18ECFF00#202C0007FFEBFE00
(1788185469.946493) can0 0CFE6CEE#001F7FCC00000000
(1788185469.947276) can0 0CF00400#6E7D7F0000000F7D
(1788185469.955586) can0 18FEF200#00000000F70EFFFF
(1788185469.966991) can0 0CFE6CEE#001F7FCC00000000
(1788185469.967003) can0 0CF00400#6E7D7F0000000F7D
(1788185469.987046) can0 0CFE6CEE#001F7FCC00000000
(1788185469.987056) can0 0CF00400#6E7D7F0000000F7D
(1788185469.996052) can0 18FEF200#00000000F80EFFFF
(1788185469.997972) can0 18EBFF00#0142343500002A34
(1788185470.006236) can0 0CFE6CEE#001F7FCC00000000
(1788185470.006844) can0 0CF00400#6E7D7F0000000F7D
(1788185470.026323) can0 0CFE6CEE#001F7FCC00000000
(1788185470.026789) can0 0CF00400#6E7D7F0000000F7D
(1788185470.046567) can0 0CFE6CEE#001F7FCC00000000
(1788185470.047171) can0 0CF00400#6E7D7F0000000F7D
(1788185470.050933) can0 18EBFF00#0246206530344430
(1788185470.066964) can0 0CFE6CEE#001F7FCC00000000
(1788185470.066974) can0 0CF00400#6E7D7F0000000F7D
(1788185470.086678) can0 0CFE6CEE#001F7FCC00000000
(1788185470.086976) can0 0CF00400#6E7D7F0000000F7D
(1788185470.096132) can0 18FEF200#00000000F70EFFFF
(1788185470.106125) can0 0CFE6CEE#001F7FCC00000000
(1788185470.107225) can0 0CF00400#6E7D7F0000000F7D
(1788185470.107235) can0 18EBFF00#0333382020202020
(1788185470.126216) can0 0CFE6CEE#001F7FCC00000000
(1788185470.126907) can0 0CF00400#6E7D7F0000000F7D
(1788185470.146697) can0 0CFE6CEE#001F7FCC00000000
(1788185470.147270) can0 0CF00400#6E7D7F0000000F7D
(1788185470.164509) can0 18EBFF00#0420202A30303030
(1788185470.166615) can0 0CFE6CEE#001F7FCC00000000
(1788185470.167139) can0 0CF00400#6E7D7F0000000F7D
(1788185470.186766) can0 0CFE6CEE#001F7FCC00000000
(1788185470.187159) can0 0CF00400#6E7D7F0000000F7D
(1788185470.196067) can0 18FEF200#00000000F70EFFFF
(1788185470.206307) can0 0CFE6CEE#001F7FCC00000000
(1788185470.206858) can0 0CF00400#6E7D7F0000000F7D
(1788185470.218334) can0 18EBFF00#05303030302A2A2A
(1788185470.226343) can0 0CFE6CEE#001F7FCC00000000
(1788185470.226884) can0 0CF00400#6E7D7F0000000F7D
(1788185470.246679) can0 0CFE6CEE#001F7FCC00000000
(1788185470.247252) can0 0CF00400#6E7D7F0000000F7D
(1788185470.266186) can0 18FEEF00#FAFFFF00FFFFFFFF
(1788185470.266518) can0 0CFE6CEE#001F7FCC00000000
(1788185470.267733) can0 0CF00400#6E7D7F0000000F7D
(1788185470.270950) can0 18EBFF00#062A2A2A2A2A2A2A
(1788185470.286663) can0 0CFE6CEE#001F7FCC00000000
(1788185470.287108) can0 0CF00400#6E7D7F0000000F7D
(1788185470.296188) can0 18FEF200#00000000F70EFFFF
(1788185470.306255) can0 0CFE6CEE#001F7FCC00000000
(1788185470.307024) can0 0CF00400#6E7D7F0000000F7D
(1788185470.326361) can0 0CFE6CEE#001F7FCC00000000
(1788185470.326966) can0 0CF00400#6E7D7F0000000F7D
(1788185470.327570) can0 18EBFF00#072A2AFFFFFFFFFF
(1788185470.346604) can0 0CFE6CEE#001F7FCC00000000
(1788185470.347209) can0 0CF00400#6E7D7F0000000F7D
(1788185470.366605) can0 0CFE6CEE#001F7FCC00000000
(1788185470.367250) can0 0CF00400#6E7D7F0000000F7D
(1788185470.386679) can0 0CFE6CEE#001F7FCC00000000
(1788185470.387204) can0 0CF00400#6E7D7F0000000F7D
(1788185470.396214) can0 18FEF200#00000000F80EFFFF
(1788185470.400453) can0 18FEF700#FFFFFFFFE501FFFF
(1788185470.406425) can0 0CFE6CEE#001F7FCC00000000
(1788185470.406961) can0 0CF00400#6E7D7F0000000F7D
(1788185470.426422) can0 0CFE6CEE#001F7FCC00000000
(1788185470.426960) can0 0CF00400#6E7D7F0000000F7D
(1788185470.445367) can0 18FEEE00#36FFFFFFFFFFFFFF
(1788185470.446607) can0 0CFE6CEE#001F7FCC00000000
(1788185470.447110) can0 0CF00400#6E7D7F0000000F7D
(1788185470.450023) can0 18FEFC17#FF710000FFFFFFFF
(1788185470.466505) can0 0CFE6CEE#001F7FCC00000000
(1788185470.467152) can0 0CF00400#6E7D7F0000000F7D
(1788185470.486536) can0 0CFE6CEE#001F7FCC00000000
(1788185470.487070) can0 0CF00400#6E7D7F0000000F7D
(1788185470.496105) can0 18FEF200#00000000F70EFFFF
(1788185470.506270) can0 0CFE6CEE#001F7FCC00000000
(1788185470.506876) can0 0CF00400#6E7D7F0000000F7D
(1788185470.526330) can0 0CFE6CEE#001F7FCC00000000
(1788185470.526872) can0 0CF00400#6E7D7F0000000F7D
(1788185470.536201) can0 18FEF500#C9FFFFFFFFFFFFFF
(1788185470.546607) can0 0CFE6CEE#001F7FCC00000000
(1788185470.547179) can0 0CF00400#6E7D7F0000000F7D
(1788185470.566636) can0 0CFE6CEE#001F7FCC00000000
(1788185470.567072) can0 0CF00400#6E7D7F0000000F7D
(1788185470.586720) can0 0CFE6CEE#001F7FCC00000000
(1788185470.587235) can0 0CF00400#6E7D7F0000000F7D
(1788185470.596282) can0 18FEF200#00000000F70EFFFF
(1788185470.605978) can0 18FECA00#43FFFB000201FFFF
(1788185470.606629) can0 0CFE6CEE#001F7FCC00000000
(1788185470.607060) can0 0CF00400#6E7D7F0000000F7D
(1788185470.626547) can0 0CFE6CEE#001F7FCC00000000
(1788185470.627078) can0 0CF00400#6E7D7F0000000F7D
(1788185470.646604) can0 0CFE6CEE#001F7FCC00000000
(1788185470.647185) can0 0CF00400#6E7D7F0000000F7D
(1788185470.666601) can0 0CFE6CEE#001F7FCC00000000
(1788185470.667090) can0 0CF00400#6E7D7F0000000F7D
(1788185470.686765) can0 0CFE6CEE#001F7FCC00000000
(1788185470.687223) can0 0CF00400#6E7D7F0000000F7D
(1788185470.696254) can0 18FEF200#00000000F70EFFFF
(1788185470.706644) can0 0CFE6CEE#001F7FCC00000000
(1788185470.707042) can0 0CF00400#6E7D7F0000000F7D
(1788185470.726614) can0 0CFE6CEE#001F7FCC00000000
(1788185470.727031) can0 0CF00400#6E7D7F0000000F7D
(1788185470.747111) can0 0CFE6CEE#001F7FCC00000000
(1788185470.747119) can0 0CF00400#6E7D7F0000000F7D
(1788185470.766042) can0 18FEEF00#FAFFFF00FFFFFFFF
(1788185470.766630) can0 0CFE6CEE#001F7FCC00000000
(1788185470.767771) can0 0CF00400#6E7D7F0000000F7D
(1788185470.778503) can0 18ECFF00#202C0007FFEBFE00
(1788185470.787119) can0 0CFE6CEE#001F7FCC00000000
(1788185470.787126) can0 0CF00400#6E7D7F0000000F7D
(1788185470.787817) can0 18FEC1EE#482FDB0278870000
(1788185470.796356) can0 18FEF200#00000000F80EFFFF
(1788185470.807008) can0 0CFE6CEE#001F7FCC00000000
(1788185470.807015) can0 0CF00400#6E7D7F0000000F7D
(1788185470.826661) can0 0CFE6CEE#001F7FCC00000000
(1788185470.827083) can0 0CF00400#6E7D7F0000000F7D
(1788185470.831708) can0 18EBFF00#0142343500002A34
(1788185470.846691) can0 0CFE6CEE#001F7FCC00000000
(1788185470.847226) can0 0CF00400#6E7D7F0000000F7D
(1788185470.866778) can0 0CFE6CEE#001F7FCC00000000
(1788185470.867244) can0 0CF00400#6E7D7F0000000F7D
(1788185470.887125) can0 0CFE6CEE#001F7FCC00000000
(1788185470.887135) can0 0CF00400#6E7D7F0000000F7D
(1788185470.887883) can0 18EBFF00#0246206530344430
(1788185470.896155) can0 18FEF200#00000000F70EFFFF
(1788185470.907134) can0 0CFE6CEE#001F7FCC00000000
(1788185470.907143) can0 0CF00400#6E7D7F0000000F7D
(1788185470.926779) can0 0CFE6CEE#001F7FCC00000000
(1788185470.927319) can0 0CF00400#6E7D7F0000000F7D
(1788185470.944559) can0 18EBFF00#0333382020202020
(1788185470.947237) can0 0CF00400#6E7D7F0000000F7D
(1788185470.947824) can0 0CFE6CEE#001F7FCC00000000
(1788185470.966723) can0 0CFE6CEE#001F7FCC00000000
(1788185470.967228) can0 0CF00400#6E7D7F0000000F7D
(1788185470.986754) can0 0CFE6CEE#001F7FCC00000000
(1788185470.987271) can0 0CF00400#6E7D7F0000000F7D
(1788185470.996200) can0 18FEF200#00000000F70EFFFF
(1788185470.997976) can0 18EBFF00#0420202A30303030
(1788185471.007162) can0 0CFE6CEE#001F7FCC00000000
(1788185471.007171) can0 0CF00400#6E7D7F0000000F7D
(1788185471.027181) can0 0CFE6CEE#001F7FCC00000000
(1788185471.027194) can0 0CF00400#6E7D7F0000000F7D
(1788185471.046787) can0 0CFE6CEE#001F7FCC00000000
(1788185471.047403) can0 0CF00400#6E7D7F0000000F7D
(1788185471.051154) can0 18EBFF00#05303030302A2A2A
(1788185471.067200) can0 0CFE6CEE#001F7FCC00000000
(1788185471.067210) can0 0CF00400#6E7D7F0000000F7D
(1788185471.086809) can0 0CFE6CEE#001F7FCC00000000
(1788185471.087335) can0 0CF00400#6E7D7F0000000F7D
(1788185471.096262) can0 18FEF200#00000000F70EFFFF
(1788185471.106820) can0 0CFE6CEE#001F7FCC00000000
(1788185471.107374) can0 0CF00400#6E7D7F0000000F7D
(1788185471.107968) can0 18EBFF00#062A2A2A2A2A2A2A
(1788185471.126848) can0 0CFE6CEE#001F7FCC00000000
(1788185471.127429) can0 0CF00400#6E7D7F0000000F7D
(1788185471.147203) can0 0CFE6CEE#001F7FCC00000000
(1788185471.147243) can0 0CF00400#6E7D7F0000000F7D
(1788185471.164943) can0 18EBFF00#072A2AFFFFFFFFFF
(1788185471.166922) can0 0CFE6CEE#001F7FCC00000000
(1788185471.167497) can0 0CF00400#6E7D7F0000000F7D
(1788185471.186918) can0 0CFE6CEE#001F7FCC00000000
(1788185471.187509) can0 0CF00400#6E7D7F0000000F7D
(1788185471.196142) can0 18FEF200#00000000F80EFFFF
(1788185471.207212) can0 0CFE6CEE#001F7FCC00000000
(1788185471.207256) can0 0CF00400#6E7D7F0000000F7D
(1788185471.227241) can0 0CF00400#6E7D7F0000000F7D
(1788185471.227251) can0 0CFE6CEE#001F7FCC00000000
(1788185471.246971) can0 0CFE6CEE#001F7FCC00000000
(1788185471.247441) can0 0CF00400#6E7D7F0000000F7D
(1788185471.265966) can0 18FEEF00#FAFFFF00FFFFFFFF
(1788185471.267279) can0 0CFE6CEE#001F7FCC00000000
(1788185471.267886) can0 0CF00400#6E7D7F0000000F7D
(1788185471.287210) can0 0CFE6CEE#001F7FCC00000000
(1788185471.287507) can0 0CF00400#6E7D7F0000000F7D
(1788185471.296354) can0 18FEF200#00000000F70EFFFF
(1788185471.307292) can0 0CF00400#6E7D7F0000000F7D
(1788185471.307302) can0 0CFE6CEE#001F7FCC00000000
(1788185471.327226) can0 0CF00400#6E7D7F0000000F7D
(1788185471.327278) can0 0CFE6CEE#001F7FCC00000000
(1788185471.346850) can0 0CF00400#6E7D7F0000000F7D
(1788185471.347489) can0 0CFE6CEE#001F7FCC00000000
(1788185471.367038) can0 0CFE6CEE#001F7FCC00000000
(1788185471.367625) can0 0CF00400#6E7D7F0000000F7D
(1788185471.387191) can0 0CFE6CEE#001F7FCC00000000
(1788185471.387500) can0 0CF00400#6E7D7F0000000F7D
(1788185471.396217) can0 18FEF200#00000000F70EFFFF
(1788185471.400913) can0 18FEF700#FFFFFFFFE501FFFF
(1788185471.407208) can0 0CF00400#6E7D7F0000000F7D
(1788185471.407359) can0 0CFE6CEE#001F7FCC00000000
(1788185471.426911) can0 0CF00400#6E7D7F0000000F7D
(1788185471.427509) can0 0CFE6CEE#001F7FCC00000000
(1788185471.445550) can0 18FEEE00#36FFFFFFFFFFFFFF
(1788185471.447334) can0 0CF00400#6E7D7F0000000F7D
(1788185471.447887) can0 0CFE6CEE#001F7FCC00000000
(1788185471.450132) can0 18FEFC17#FF710000FFFFFFFF
(1788185471.466990) can0 0CF00400#6E7D7F0000000F7D
(1788185471.467575) can0 0CFE6CEE#001F7FCC00000000
(1788185471.486981) can0 0CF00400#6E7D7F0000000F7D
(1788185471.487573) can0 0CFE6CEE#001F7FCC00000000
(1788185471.496352) can0 18FEF200#00000000F70EFFFF
(1788185471.506916) can0 0CF00400#6E7D7F0000000F7D
(1788185471.507506) can0 0CFE6CEE#001F7FCC00000000
(1788185471.526888) can0 0CF00400#6E7D7F0000000F7D
(1788185471.527515) can0 0CFE6CEE#001F7FCC00000000
(1788185471.536421) can0 18FEF500#C9FFFFFFFFFFFFFF
(1788185471.546917) can0 0CF00400#6E7D7F0000000F7D
(1788185471.547488) can0 0CFE6CEE#001F7FCC00000000
(1788185471.566978) can0 0CF00400#6E7D7F0000000F7D
(1788185471.567551) can0 0CFE6CEE#001F7FCC00000000
(1788185471.587041) can0 0CF00400#6E7D7F0000000F7D
(1788185471.587589) can0 0CFE6CEE#001F7FCC00000000
(1788185471.596390) can0 18FEF200#00000000F80EFFFF
(1788185471.606150) can0 18FECA00#43FFFB000201FFFF
(1788185471.606981) can0 0CF00400#6E7D7F0000000F7D
(1788185471.607538) can0 0CFE6CEE#001F7FCC00000000
(1788185471.626932) can0 0CF00400#6E7D7F0000000F7D
(1788185471.627400) can0 0CFE6CEE#001F7FCC00000000
(1788185471.646966) can0 0CF00400#6E7D7F0000000F7D
(1788185471.647497) can0 0CFE6CEE#001F7FCC00000000
(1788185471.667005) can0 0CF00400#6E7D7F0000000F7D
(1788185471.667524) can0 0CFE6CEE#001F7FCC00000000
(1788185471.687010) can0 0CF00400#6E7D7F0000000F7D
(1788185471.687573) can0 0CFE6CEE#001F7FCC00000000
(1788185471.696275) can0 18FEF200#00000000F70EFFFF
(1788185471.707027) can0 0CF00400#6E7D7F0000000F7D
(1788185471.707506) can0 0CFE6CEE#001F7FCC00000000
(1788185471.726905) can0 0CF00400#6E7D7F0000000F7D
(1788185471.727406) can0 0CFE6CEE#001F7FCC00000000
(1788185471.746949) can0 0CF00400#6E7D7F0000000F7D
(1788185471.747557) can0 0CFE6CEE#001F7FCC00000000
(1788185471.757955) can0 18FEF200#00000000F70EFFFF
(1788185471.765967) can0 18FEEF00#FAFFFF00FFFFFFFF
(1788185471.767160) can0 0CFE6CEE#001F7FCC00000000
(1788185471.767884) can0 0CF00400#5E7D7F0000000F7D
(1788185471.778788) can0 18ECFF00#202C0007FFEBFE00
(1788185471.787190) can0 0CF00400#5E7D7F0000000F7D
(1788185471.787540) can0 0CFE6CEE#001F7FCC00000000
(1788185471.788125) can0 18FEC1EE#482FDB0278870000
(1788185471.796368) can0 18FEF200#00000000F70EFFFF
(1788185471.807193) can0 0CF00400#5E7D7F0000000F7D
(1788185471.807477) can0 0CFE6CEE#001F7FCC00000000
(1788185471.826924) can0 0CF00400#5E7D7F0000000F7D
(1788185471.827449) can0 0CFE6CEE#001F7FCC00000000
(1788185471.831751) can0 18EBFF00#0142343500002A34
(1788185471.847194) can0 0CF00400#6E7D7F0000000F7D
(1788185471.847442) can0 0CFE6CEE#001F7FCC00000000
(1788185471.867189) can0 0CF00400#6E7D7F0000000F7D
(1788185471.867438) can0 0CFE6CEE#001F7FCC00000000
(1788185471.887194) can0 0CF00400#6E7D7F0000000F7D
(1788185471.887533) can0 0CFE6CEE#001F7FCC00000000
(1788185471.888104) can0 18EBFF00#0246206530344430
(1788185471.896410) can0 18FEF200#00000000F80EFFFF
(1788185471.907246) can0 0CF00400#6E7D7F0000000F7D
(1788185471.907456) can0 0CFE6CEE#001F7FCC00000000
(1788185471.926890) can0 0CF00400#6E7D7F0000000F7D
(1788185471.927628) can0 0CFE6CEE#001F7FCC00000000
(1788185471.944701) can0 18EBFF00#0333382020202020
(1788185471.947069) can0 0CF00400#6E7D7F0000000F7D
(1788185471.948176) can0 0CFE6CEE#001F7FCC00000000
(1788185471.967111) can0 0CF00400#6E7D7F0000000F7D
(1788185471.967548) can0 0CFE6CEE#001F7FCC00000000
(1788185471.987202) can0 0CF00400#6E7D7F0000000F7D
(1788185471.987621) can0 0CFE6CEE#001F7FCC00000000
(1788185471.996340) can0 18FEF200#00000000F70EFFFF
(1788185471.998024) can0 18EBFF00#0420202A30303030
(1788185472.007206) can0 0CF00400#6E7D7F0000000F7D
(1788185472.007423) can0 0CFE6CEE#001F7FCC00000000
(1788185472.026881) can0 0CF00400#6E7D7F0000000F7D
(1788185472.027615) can0 0CFE6CEE#001F7FCC00000000
(1788185472.046854) can0 0CF00400#6E7D7F0000000F7D
(1788185472.047611) can0 0CFE6CEE#001F7FCC00000000
(1788185472.051220) can0 18EBFF00#05303030302A2A2A
(1788185472.067390) can0 0CF00400#6E7D7F0000000F7D
(1788185472.067411) can0 0CFE6CEE#001F7FCC00000000
(1788185472.087191) can0 0CF00400#6E7D7F0000000F7D
(1788185472.087541) can0 0CFE6CEE#001F7FCC00000000
(1788185472.096321) can0 18FEF200#00000000F70EFFFF
(1788185472.107361) can0 0CF00400#6E7D7F0000000F7D
(1788185472.107365) can0 0CFE6CEE#001F7FCC00000000
(1788185472.108263) can0 18EBFF00#062A2A2A2A2A2A2A
(1788185472.127120) can0 0CF00400#6E7D7F0000000F7D
(1788185472.127494) can0 0CFE6CEE#001F7FCC00000000
(1788185472.146931) can0 0CF00400#6E7D7F0000000F7D
(1788185472.147637) can0 0CFE6CEE#001F7FCC00000000
(1788185472.164704) can0 18EBFF00#072A2AFFFFFFFFFF
(1788185472.167192) can0 0CF00400#6E7D7F0000000F7D
(1788185472.167597) can0 0CFE6CEE#001F7FCC00000000
(1788185472.187205) can0 0CF00400#6E7D7F0000000F7D
(1788185472.187593) can0 0CFE6CEE#001F7FCC00000000
(1788185472.196406) can0 18FEF200#00000000F70EFFFF
(1788185472.207119) can0 0CF00400#6E7D7F0000000F7D
(1788185472.207560) can0 0CFE6CEE#001F7FCC00000000
(1788185472.227205) can0 0CF00400#6E7D7F0000000F7D
(1788185472.227477) can0 0CFE6CEE#001F7FCC00000000
(1788185472.246968) can0 0CF00400#5E7D7F0000000F7D
(1788185472.247555) can0 0CFE6CEE#001F7FCC00000000
(1788185472.266074) can0 18FEEF00#FAFFFF00FFFFFFFF
(1788185472.267210) can0 0CF00400#5E7D7F0000000F7D
(1788185472.268242) can0 0CFE6CEE#001F7FCC00000000
(1788185472.287197) can0 0CF00400#5E7D7F0000000F7D
(1788185472.287527) can0 0CFE6CEE#001F7FCC00000000
(1788185472.296448) can0 18FEF200#00000000F70EFFFF
(1788185472.307286) can0 0CF00400#5E7D7F0000000F7D
(1788185472.307452) can0 0CFE6CEE#001F7FCC00000000
(1788185472.326905) can0 0CF00400#5E7D7F0000000F7D
(1788185472.327562) can0 0CFE6CEE#001F7FCC00000000
(1788185472.346938) can0 0CF00400#5E7D7F0000000F7D
(1788185472.347539) can0 0CFE6CEE#001F7FCC00000000
(1788185472.367438) can0 0CF00400#5E7D7F0000000F7D
(1788185472.367444) can0 0CFE6CEE#001F7FCC00000000
(1788185472.387165) can0 0CF00400#5E7D7F0000000F7D
(1788185472.387691) can0 0CFE6CEE#001F7FCC00000000
(1788185472.396197) can0 18FEF200#00000000F80EFFFF
(1788185472.400820) can0 18FEF700#FFFFFFFFE501FFFF
(1788185472.407107) can0 0CF00400#6E7D7F0000000F7D
(1788185472.407552) can0 0CFE6CEE#001F7FCC00000000
(1788185472.427127) can0 0CF00400#6E7D7F0000000F7D
(1788185472.427612) can0 0CFE6CEE#001F7FCC00000000
(1788185472.445692) can0 18FEEE00#36FFFFFFFFFFFFFF
(1788185472.447339) can0 0CF00400#6E7D7F0000000F7D
(1788185472.447970) can0 0CFE6CEE#001F7FCC00000000
(1788185472.450172) can0 18FEFC17#FF710000FFFFFFFF
(1788185472.467165) can0 0CF00400#6E7D7F0000000F7D
(1788185472.467545) can0 0CFE6CEE#001F7FCC00000000
(1788185472.487120) can0 0CF00400#5E7D7F0000000F7D
(1788185472.487670) can0 0CFE6CEE#001F7FCC00000000
(1788185472.496353) can0 18FEF200#00000000F70EFFFF
(1788185472.507000) can0 0CF00400#5E7D7F0000000F7D
(1788185472.507612) can0 0CFE6CEE#001F7FCC00000000
(1788185472.527309) can0 0CF00400#5E7D7F0000000F7D
(1788185472.527564) can0 0CFE6CEE#001F7FCC00000000
(1788185472.536487) can0 18FEF500#C9FFFFFFFFFFFFFF
(1788185472.546968) can0 0CF00400#5E7D7F0000000F7D
(1788185472.547669) can0 0CFE6CEE#001F7FCC00000000
(1788185472.567197) can0 0CF00400#5E7D7F0000000F7D
(1788185472.567732) can0 0CFE6CEE#001F7FCC00000000
(1788185472.587139) can0 0CF00400#5E7D7F0000000F7D
(1788185472.587745) can0 0CFE6CEE#001F7FCC00000000
(1788185472.596231) can0 18FEF200#00000000F70EFFFF
(1788185472.606146) can0 18FECA00#43FFFB000201FFFF
(1788185472.607192) can0 0CF00400#5E7D7F0000000F7D
(1788185472.607734) can0 0CFE6CEE#001F7FCC00000000
(1788185472.626976) can0 0CF00400#5E7D7F0000000F7D
(1788185472.627664) can0 0CFE6CEE#001F7FCC00000000
(1788185472.647002) can0 0CF00400#6E7D7F0000000F7D
(1788185472.647760) can0 0CFE6CEE#001F7FCC00000000
(1788185472.667124) can0 0CF00400#6E7D7F0000000F7D
(1788185472.667743) can0 0CFE6CEE#001F7FCC00000000
(1788185472.687115) can0 0CF00400#6E7D7F0000000F7D
(1788185472.687779) can0 0CFE6CEE#001F7FCC00000000
(1788185472.696453) can0 18FEF200#00000000F70EFFFF
(1788185472.706972) can0 0CF00400#6E7D7F0000000F7D
(1788185472.707836) can0 0CFE6CEE#001F7FCC00000000
(1788185472.726920) can0 0CF00400#6E7D7F0000000F7D
(1788185472.727782) can0 0CFE6CEE#001F7FCC00000000
(1788185472.747005) can0 0CF00400#6E7D7F0000000F7D
(1788185472.747806) can0 0CFE6CEE#001F7FCC00000000
(1788185472.766206) can0 18FEEF00#FAFFFF00FFFFFFFF
(1788185472.767293) can0 0CF00400#6E7D7F0000000F7D
(1788185472.767924) can0 0CFE6CEE#001F7FCC00000000
(1788185472.778574) can0 18ECFF00#202C0007FFEBFE00
(1788185472.787123) can0 0CF00400#6E7D7F0000000F7D
(1788185472.787778) can0 18FEC1EE#482FDB0278870000
(1788185472.788388) can0 0CFE6CEE#001F7FCC00000000
(1788185472.796447) can0 18FEF200#00000000F80EFFFF
(1788185472.807005) can0 0CF00400#6E7D7F0000000F7D
(1788185472.807866) can0 0CFE6CEE#001F7FCC00000000
(1788185472.827002) can0 0CF00400#6E7D7F0000000F7D
(1788185472.827880) can0 0CFE6CEE#001F7FCC00000000
(1788185472.831828) can0 18EBFF00#0142343500002A34
(1788185472.846994) can0 0CF00400#6E7D7F0000000F7D
(1788185472.847827) can0 0CFE6CEE#001F7FCC00000000
(1788185472.867085) can0 0CF00400#6E7D7F0000000F7D
(1788185472.867904) can0 0CFE6CEE#001F7FCC00000000
(1788185472.887107) can0 0CF00400#5E7D7F0000000F7D
(1788185472.887640) can0 18EBFF00#0246206530344430
(1788185472.888241) can0 0CFE6CEE#001F7FCC00000000
(1788185472.896438) can0 18FEF200#00000000F70EFFFF
(1788185472.907086) can0 0CF00400#5E7D7F0000000F7D
(1788185472.907904) can0 0CFE6CEE#001F7FCC00000000
(1788185472.927010) can0 0CF00400#5E7D7F0000000F7D
(1788185472.927951) can0 0CFE6CEE#001F7FCC00000000
(1788185472.944741) can0 18EBFF00#0333382020202020
(1788185472.947231) can0 0CF00400#5E7D7F0000000F7D
(1788185472.947987) can0 0CFE6CEE#001F7FCC00000000
(1788185472.967102) can0 0CF00400#5E7D7F0000000F7D
(1788185472.967978) can0 0CFE6CEE#001F7FCC00000000
(1788185472.987135) can0 0CF00400#5E7D7F0000000F7D
(1788185472.987984) can0 0CFE6CEE#001F7FCC00000000
(1788185472.996438) can0 18FEF200#00000000F70EFFFF
(1788185472.998132) can0 18EBFF00#0420202A30303030
(1788185473.007024) can0 0CF00400#5E7D7F0000000F7D
(1788185473.008033) can0 0CFE6CEE#001F7FCC00000000
(1788185473.026998) can0 0CF00400#5E7D7F0000000F7D
(1788185473.027989) can0 0CFE6CEE#001F7FCC00000000
(1788185473.047006) can0 0CF00400#5E7D7F0000000F7D
(1788185473.047994) can0 0CFE6CEE#001F7FCC00000000
(1788185473.051352) can0 18EBFF00#05303030302A2A2A
(1788185473.067099) can0 0CF00400#5E7D7F0000000F7D
(1788185473.068055) can0 0CFE6CEE#001F7FCC00000000
(1788185473.087158) can0 0CF00400#5E7D7F0000000F7D
(1788185473.088020) can0 0CFE6CEE#001F7FCC00000000
(1788185473.096488) can0 18FEF200#00000000F70EFFFF
(1788185473.107046) can0 0CF00400#5E7D7F0000000F7D
(1788185473.107529) can0 18EBFF00#062A2A2A2A2A2A2A
(1788185473.108083) can0 0CFE6CEE#001F7FCC00000000
(1788185473.126986) can0 0CF00400#6E7D7F0000000F7D
(1788185473.128105) can0 0CFE6CEE#001F7FCC00000000
(1788185473.146995) can0 0CF00400#6E7D7F0000000F7D
(1788185473.148107) can0 0CFE6CEE#001F7FCC00000000
(1788185473.164665) can0 18EBFF00#072A2AFFFFFFFFFF
(1788185473.167093) can0 0CF00400#6E7D7F0000000F7D
(1788185473.168146) can0 0CFE6CEE#001F7FCC00000000
(1788185473.187138) can0 0CF00400#6E7D7F0000000F7D
(1788185473.188146) can0 0CFE6CEE#001F7FCC00000000
(1788185473.196478) can0 18FEF200#00000000F80EFFFF
(1788185473.207035) can0 0CF00400#5E7D7F0000000F7D
(1788185473.208125) can0 0CFE6CEE#001F7FCC00000000
(1788185473.227050) can0 0CF00400#5E7D7F0000000F7D
(1788185473.228117) can0 0CFE6CEE#001F7FCC00000000
(1788185473.247024) can0 0CF00400#5E7D7F0000000F7D
(1788185473.248148) can0 0CFE6CEE#001F7FCC00000000
(1788185473.266166) can0 18FEEF00#FAFFFF00FFFFFFFF
(1788185473.267322) can0 0CF00400#5E7D7F0000000F7D
(1788185473.268189) can0 0CFE6CEE#001F7FCC00000000
(1788185473.287130) can0 0CF00400#5E7D7F0000000F7D
(1788185473.288217) can0 0CFE6CEE#001F7FCC00000000
(1788185473.296510) can0 18FEF200#00000000F70EFFFF
(1788185473.307032) can0 0CF00400#5E7D7F0000000F7D
(1788185473.308139) can0 0CFE6CEE#001F7FCC00000000
(1788185473.327005) can0 0CF00400#5E7D7F0000000F7D
(1788185473.328223) can0 0CFE6CEE#001F7FCC00000000
(1788185473.347038) can0 0CF00400#5E7D7F0000000F7D
(1788185473.348229) can0 0CFE6CEE#001F7FCC00000000
(1788185473.367113) can0 0CF00400#5E7D7F0000000F7D
(1788185473.368189) can0 0CFE6CEE#001F7FCC00000000
(1788185473.387194) can0 0CF00400#5E7D7F0000000F7D
(1788185473.388252) can0 0CFE6CEE#001F7FCC00000000
(1788185473.396483) can0 18FEF200#00000000F70EFFFF
(1788185473.400653) can0 18FEF700#FFFFFFFFE501FFFF
(1788185473.407034) can0 0CF00400#5E7D7F0000000F7D
(1788185473.408262) can0 0CFE6CEE#001F7FCC00000000
(1788185473.427057) can0 0CF00400#5E7D7F0000000F7D
(1788185473.428270) can0 0CFE6CEE#001F7FCC00000000
(1788185473.445719) can0 18FEEE00#36FFFFFFFFFFFFFF
(1788185473.447464) can0 0CF00400#5E7D7F0000000F7D
(1788185473.448557) can0 0CFE6CEE#001F7FCC00000000
(1788185473.450236) can0 18FEFC17#FF710000FFFFFFFF
(1788185473.467127) can0 0CF00400#5E7D7F0000000F7D
(1788185473.468271) can0 0CFE6CEE#001F7FCC00000000
(1788185473.487160) can0 0CF00400#5E7D7F0000000F7D
(1788185473.488319) can0 0CFE6CEE#001F7FCC00000000
(1788185473.496485) can0 18FEF200#00000000F70EFFFF
(1788185473.507049) can0 0CF00400#5E7D7F0000000F7D
(1788185473.508287) can0 0CFE6CEE#001F7FCC00000000
(1788185473.527047) can0 0CF00400#5E7D7F0000000F7D
(1788185473.528273) can0 0CFE6CEE#001F7FCC00000000
(1788185473.536558) can0 18FEF500#C9FFFFFFFFFFFFFF
(1788185473.547041) can0 0CF00400#5E7D7F0000000F7D
(1788185473.548368) can0 0CFE6CEE#001F7FCC00000000
(1788185473.557700) can0 18FEF200#00000000F80EFFFF
(1788185473.567154) can0 0CF00400#5E7D7F0000000F7D
(1788185473.568280) can0 0CFE6CEE#001F7FCC00000000
(1788185473.587193) can0 0CF00400#5E7D7F0000000F7D
(1788185473.588308) can0 0CFE6CEE#001F7FCC00000000
(1788185473.596460) can0 18FEF200#00000000F70EFFFF
(1788185473.606220) can0 18FECA00#43FFFB000201FFFF
(1788185473.607138) can0 0CF00400#5E7D7F0000000F7D
(1788185473.608394) can0 0CFE6CEE#001F7FCC00000000
(1788185473.627102) can0 0CF00400#5E7D7F0000000F7D
(1788185473.628311) can0 0CFE6CEE#001F7FCC00000000
(1788185473.647056) can0 0CF00400#5E7D7F0000000F7D
(1788185473.648451) can0 0CFE6CEE#001F7FCC00000000
(1788185473.667118) can0 0CF00400#5E7D7F0000000F7D
(1788185473.668352) can0 0CFE6CEE#001F7FCC00000000
(1788185473.687182) can0 0CF00400#6E7D7F0000000F7D
(1788185473.688410) can0 0CFE6CEE#001F7FCC00000000
(1788185473.696563) can0 18FEF200#00000000F70EFFFF
(1788185473.707148) can0 0CF00400#6E7D7F0000000F7D
(1788185473.708409) can0 0CFE6CEE#001F7FCC00000000
(1788185473.727223) can0 0CF00400#6E7D7F0000000F7D
(1788185473.728410) can0 0CFE6CEE#001F7FCC00000000
(1788185473.747197) can0 0CF00400#6E7D7F0000000F7D
(1788185473.748594) can0 0CFE6CEE#001F7FCC00000000
(1788185473.766133) can0 18FEEF00#FAFFFF00FFFFFFFF
(1788185473.767364) can0 0CF00400#5E7D7F0000000F7D
(1788185473.768544) can0 0CFE6CEE#001F7FCC00000000
(1788185473.778960) can0 18ECFF00#202C0007FFEBFE00
(1788185473.787239) can0 0CF00400#5E7D7F0000000F7D
(1788185473.788483) can0 18FEC1EE#482FDB0278870000
(1788185473.789040) can0 0CFE6CEE#001F7FCC00000000
(1788185473.796491) can0 18FEF200#00000000F70EFFFF
(1788185473.807199) can0 0CF00400#5E7D7F0000000F7D
(1788185473.808683) can0 0CFE6CEE#001F7FCC00000000
(1788185473.827013) can0 0CF00400#5E7D7F0000000F7D
(1788185473.828603) can0 0CFE6CEE#001F7FCC00000000
(1788185473.831917) can0 18EBFF00#0142343500002A34
(1788185473.847202) can0 0CF00400#5E7D7F0000000F7D
(1788185473.848615) can0 0CFE6CEE#001F7FCC00000000
(1788185473.867200) can0 0CF00400#5E7D7F0000000F7D
(1788185473.868591) can0 0CFE6CEE#001F7FCC00000000
(1788185473.887266) can0 0CF00400#5E7D7F0000000F7D
(1788185473.887807) can0 18EBFF00#0246206530344430
(1788185473.888623) can0 0CFE6CEE#001F7FCC00000000
(1788185473.896629) can0 18FEF200#00000000F80EFFFF
(1788185473.907479) can0 0CF00400#5E7D7F0000000F7D
(1788185473.908635) can0 0CFE6CEE#001F7FCC00000000
(1788185473.927199) can0 0CF00400#5E7D7F0000000F7D
(1788185473.928626) can0 0CFE6CEE#001F7FCC00000000
(1788185473.945119) can0 18EBFF00#0333382020202020
(1788185473.947210) can0 0CF00400#5E7D7F0000000F7D
(1788185473.948671) can0 0CFE6CEE#001F7FCC00000000
(1788185473.967198) can0 0CF00400#5E7D7F0000000F7D
(1788185473.968651) can0 0CFE6CEE#001F7FCC00000000
(1788185473.987281) can0 0CF00400#5E7D7F0000000F7D
(1788185473.988703) can0 0CFE6CEE#001F7FCC00000000
(1788185473.996490) can0 18FEF200#00000000F70EFFFF
(1788185473.998601) can0 18EBFF00#0420202A30303030
(1788185474.007232) can0 0CF00400#5E7D7F0000000F7D
(1788185474.009026) can0 0CFE6CEE#001F7FCC00000000
(1788185474.027161) can0 0CF00400#5E7D7F0000000F7D
(1788185474.028673) can0 0CFE6CEE#001F7FCC00000000
(1788185474.047206) can0 0CF00400#5E7D7F0000000F7D
(1788185474.048699) can0 0CFE6CEE#001F7FCC00000000
(1788185474.051377) can0 18EBFF00#05303030302A2A2A
(1788185474.067194) can0 0CF00400#5E7D7F0000000F7D
(1788185474.068698) can0 0CFE6CEE#001F7FCC00000000
(1788185474.087182) can0 0CF00400#5E7D7F0000000F7D
(1788185474.089109) can0 0CFE6CEE#001F7FCC00000000
(1788185474.096383) can0 18FEF200#00000000F70EFFFF
(1788185474.107160) can0 0CF00400#5E7D7F0000000F7D
(1788185474.107698) can0 18EBFF00#062A2A2A2A2A2A2A
(1788185474.109155) can0 0CFE6CEE#001F7FCC00000000
(1788185474.127165) can0 0CF00400#5E7D7F0000000F7D
(1788185474.128804) can0 0CFE6CEE#001F7FCC00000000
(1788185474.147182) can0 0CF00400#5E7D7F0000000F7D
(1788185474.148801) can0 0CFE6CEE#001F7FCC00000000
(1788185474.164736) can0 18EBFF00#072A2AFFFFFFFFFF
(1788185474.167194) can0 0CF00400#5E7D7F0000000F7D
(1788185474.168826) can0 0CFE6CEE#001F7FCC00000000
(1788185474.187234) can0 0CF00400#5E7D7F0000000F7D
(1788185474.188751) can0 0CFE6CEE#001F7FCC00000000
(1788185474.196376) can0 18FEF200#00000000F70EFFFF
(1788185474.207205) can0 0CF00400#5E7D7F0000000F7D
(1788185474.209174) can0 0CFE6CEE#001F7FCC00000000
(1788185474.227080) can0 0CF00400#5E7D7F0000000F7D
(1788185474.228754) can0 0CFE6CEE#001F7FCC00000000
(1788185474.247103) can0 0CF00400#5E7D7F0000000F7D
(1788185474.248743) can0 0CFE6CEE#001F7FCC00000000
(1788185474.266252) can0 18FEEF00#FAFFFF00FFFFFFFF
(1788185474.267389) can0 0CF00400#5E7D7F0000000F7D
(1788185474.268745) can0 0CFE6CEE#001F7FCC00000000
(1788185474.287239) can0 0CF00400#5E7D7F0000000F7D
(1788185474.288817) can0 0CFE6CEE#001F7FCC00000000
(1788185474.296553) can0 18FEF200#00000000F80EFFFF
(1788185474.307152) can0 0CF00400#5E7D7F0000000F7D
(1788185474.308803) can0 0CFE6CEE#001F7FCC00000000
(1788185474.327113) can0 0CF00400#5E7D7F0000000F7D
(1788185474.328827) can0 0CFE6CEE#001F7FCC00000000
(1788185474.347100) can0 0CF00400#5E7D7F0000000F7D
(1788185474.348831) can0 0CFE6CEE#001F7FCC00000000
(1788185474.367156) can0 0CF00400#5E7D7F0000000F7D
(1788185474.368792) can0 0CFE6CEE#001F7FCC00000000
(1788185474.387144) can0 0CF00400#5E7D7F0000000F7D
(1788185474.388816) can0 0CFE6CEE#001F7FCC00000000
(1788185474.396575) can0 18FEF200#00000000F70EFFFF
(1788185474.400729) can0 18FEF700#FFFFFFFFE501FFFF
(1788185474.407153) can0 0CF00400#5E7D7F0000000F7D
(1788185474.408880) can0 0CFE6CEE#001F7FCC00000000
(1788185474.427152) can0 0CF00400#5E7D7F0000000F7D
(1788185474.428874) can0 0CFE6CEE#001F7FCC00000000
(1788185474.445763) can0 18FEEE00#36FFFFFFFFFFFFFF
(1788185474.447583) can0 0CF00400#5E7D7F0000000F7D
(1788185474.449216) can0 0CFE6CEE#001F7FCC00000000
(1788185474.450409) can0 18FEFC17#FF710000FFFFFFFF
(1788185474.467226) can0 0CF00400#5E7D7F0000000F7D
(1788185474.468939) can0 0CFE6CEE#001F7FCC00000000
(1788185474.487279) can0 0CF00400#5E7D7F0000000F7D
(1788185474.488907) can0 0CFE6CEE#001F7FCC00000000
(1788185474.496585) can0 18FEF200#00000000F70EFFFF
(1788185474.507134) can0 0CF00400#5E7D7F0000000F7D
(1788185474.508937) can0 0CFE6CEE#001F7FCC00000000
(1788185474.527128) can0 0CF00400#5E7D7F0000000F7D
(1788185474.528983) can0 0CFE6CEE#001F7FCC00000000
(1788185474.536632) can0 18FEF500#C9FFFFFFFFFFFFFF
(1788185474.547153) can0 0CF00400#5E7D7F0000000F7D
(1788185474.548893) can0 0CFE6CEE#001F7FCC00000000
(1788185474.567223) can0 0CF00400#5E7D7F0000000F7D
(1788185474.568967) can0 0CFE6CEE#001F7FCC00000000
(1788185474.587289) can0 0CF00400#5E7D7F0000000F7D
(1788185474.588975) can0 0CFE6CEE#001F7FCC00000000
(1788185474.596567) can0 18FEF200#00000000F70EFFFF
(1788185474.606302) can0 18FECA00#43FFFB000201FFFF
(1788185474.607221) can0 0CF00400#5E7D7F0000000F7D
(1788185474.609021) can0 0CFE6CEE#001F7FCC00000000
(1788185474.627149) can0 0CF00400#5E7D7F0000000F7D
(1788185474.629007) can0 0CFE6CEE#001F7FCC00000000
(1788185474.647094) can0 0CF00400#5E7D7F0000000F7D
(1788185474.649071) can0 0CFE6CEE#001F7FCC00000000
(1788185474.667241) can0 0CF00400#5E7D7F0000000F7D
(1788185474.669030) can0 0CFE6CEE#001F7FCC00000000
(1788185474.670850) can0 18ECFF00#20220005FFE3FE00
(1788185474.687355) can0 0CF00400#5E7D7F0000000F7D
(1788185474.689105) can0 0CFE6CEE#001F7FCC00000000
(1788185474.696606) can0 18FEF200#00000000F70EFFFF
(1788185474.707143) can0 0CF00400#5E7D7F0000000F7D
(1788185474.709078) can0 0CFE6CEE#001F7FCC00000000
(1788185474.724849) can0 18EBFF00#017017A73052A940
(1788185474.727173) can0 0CF00400#5E7D7F0000000F7D
(1788185474.729100) can0 0CFE6CEE#001F7FCC00000000
(1788185474.747259) can0 0CF00400#5E7D7F0000000F7D
(1788185474.749098) can0 0CFE6CEE#001F7FCC00000000
(1788185474.766379) can0 18FEEF00#FAFFFF00FFFFFFFF
(1788185474.767535) can0 0CF00400#5E7D7F0000000F7D
(1788185474.769112) can0 0CFE6CEE#001F7FCC00000000
(1788185474.778234) can0 18EBFF00#021FB0A028AC2035
(1788185474.787161) can0 0CF00400#5E7D7F0000000F7D
(1788185474.789037) can0 18FEC1EE#482FDB0278870000
(1788185474.789705) can0 0CFE6CEE#001F7FCC00000000
(1788185474.796648) can0 18FEF200#00000000F80EFFFF
(1788185474.807179) can0 0CF00400#5E7D7F0000000F7D
(1788185474.809150) can0 0CFE6CEE#001F7FCC00000000
(1788185474.827141) can0 0CF00400#5E7D7F0000000F7D
(1788185474.829234) can0 0CFE6CEE#001F7FCC00000000
(1788185474.831983) can0 18EBFF00#03AA6059FFFFEE02
(1788185474.847172) can0 0CF00400#5E7D7F0000000F7D
(1788185474.849243) can0 0CFE6CEE#001F7FCC00000000
(1788185474.867241) can0 0CF00400#5E7D7F0000000F7D
(1788185474.869149) can0 0CFE6CEE#001F7FCC00000000
(1788185474.887221) can0 0CF00400#5E7D7F0000000F7D
(1788185474.887809) can0 18EBFF00#0498623C3CFA7DAC
(1788185474.889215) can0 0CFE6CEE#001F7FCC00000000
(1788185474.896614) can0 18FEF200#00000000F70EFFFF
(1788185474.907202) can0 0CF00400#5E7D7F0000000F7D
(1788185474.909217) can0 0CFE6CEE#001F7FCC00000000
(1788185474.927143) can0 0CF00400#5E7D7F0000000F7D
(1788185474.929241) can0 0CFE6CEE#001F7FCC00000000
(1788185474.944828) can0 18EBFF00#0560597700FFFFFF
(1788185474.945455) can0 18ECFF00#202C0007FFEBFE00
(1788185474.947215) can0 0CF00400#5E7D7F0000000F7D
(1788185474.949232) can0 0CFE6CEE#001F7FCC00000000
(1788185474.967220) can0 0CF00400#5E7D7F0000000F7D
(1788185474.969235) can0 0CFE6CEE#001F7FCC00000000
(1788185474.987292) can0 0CF00400#5E7D7F0000000F7D
(1788185474.989231) can0 0CFE6CEE#001F7FCC00000000
(1788185474.996617) can0 18FEF200#00000000F70EFFFF
(1788185474.998286) can0 18EBFF00#0142343500002A34
(1788185475.007234) can0 0CF00400#5E7D7F0000000F7D
(1788185475.009243) can0 0CFE6CEE#001F7FCC00000000
(1788185475.027156) can0 0CF00400#5E7D7F0000000F7D
(1788185475.029276) can0 0CFE6CEE#001F7FCC00000000
(1788185475.047169) can0 0CF00400#5E7D7F0000000F7D
(1788185475.049294) can0 0CFE6CEE#001F7FCC00000000
(1788185475.051524) can0 18EBFF00#0246206530344430
(1788185475.067226) can0 0CF00400#5E7D7F0000000F7D
(1788185475.069217) can0 0CFE6CEE#001F7FCC00000000
(1788185475.087344) can0 0CF00400#5E7D7F0000000F7D
(1788185475.089321) can0 0CFE6CEE#001F7FCC00000000
(1788185475.096652) can0 18FEF200#00000000F70EFFFF
(1788185475.107172) can0 0CF00400#5E7D7F0000000F7D
(1788185475.107778) can0 18EBFF00#0333382020202020
(1788185475.109340) can0 0CFE6CEE#001F7FCC00000000
(1788185475.127142) can0 0CF00400#5E7D7F0000000F7D
(1788185475.129219) can0 0CFE6CEE#001F7FCC00000000
(1788185475.147175) can0 0CF00400#5E7D7F0000000F7D
(1788185475.149366) can0 0CFE6CEE#001F7FCC00000000
(1788185475.164794) can0 18EBFF00#0420202A30303030
(1788185475.167201) can0 0CF00400#5E7D7F0000000F7D
(1788185475.169343) can0 0CFE6CEE#001F7FCC00000000
(1788185475.187307) can0 0CF00400#5E7D7F0000000F7D
(1788185475.189380) can0 0CFE6CEE#001F7FCC00000000
(1788185475.196648) can0 18FEF200#00000000F80EFFFF
(1788185475.207209) can0 0CF00400#5E7D7F0000000F7D
(1788185475.209407) can0 0CFE6CEE#001F7FCC00000000
(1788185475.218199) can0 18EBFF00#05303030302A2A2A
(1788185475.227216) can0 0CF00400#5E7D7F0000000F7D
(1788185475.229355) can0 0CFE6CEE#001F7FCC00000000
(1788185475.247220) can0 0CF00400#5E7D7F0000000F7D
(1788185475.249422) can0 0CFE6CEE#001F7FCC00000000
(1788185475.266377) can0 18FEEF00#FAFFFF00FFFFFFFF
(1788185475.267571) can0 0CF00400#5E7D7F0000000F7D
(1788185475.269404) can0 0CFE6CEE#001F7FCC00000000
(1788185475.271462) can0 18EBFF00#062A2A2A2A2A2A2A
(1788185475.287265) can0 0CF00400#5E7D7F0000000F7D
(1788185475.289429) can0 0CFE6CEE#001F7FCC00000000
(1788185475.296626) can0 18FEF200#00000000F70EFFFF
(1788185475.307248) can0 0CF00400#5E7D7F0000000F7D
(1788185475.309465) can0 0CFE6CEE#001F7FCC00000000
(1788185475.327161) can0 0CF00400#5E7D7F0000000F7D
(1788185475.327780) can0 18EBFF00#072A2AFFFFFFFFFF
(1788185475.329465) can0 0CFE6CEE#001F7FCC00000000
(1788185475.347157) can0 0CF00400#5E7D7F0000000F7D
(1788185475.349469) can0 0CFE6CEE#001F7FCC00000000
(1788185475.357845) can0 18FEF200#00000000F70EFFFF
(1788185475.367271) can0 0CF00400#5E7D7F0000000F7D
(1788185475.369483) can0 0CFE6CEE#001F7FCC00000000
(1788185475.387254) can0 0CF00400#5E7D7F0000000F7D
(1788185475.389516) can0 0CFE6CEE#001F7FCC00000000
(1788185475.396641) can0 18FEF200#00000000F70EFFFF
(1788185475.400837) can0 18FEF700#FFFFFFFFE501FFFF
(1788185475.407249) can0 0CF00400#5E7D7F0000000F7D
(1788185475.409490) can0 0CFE6CEE#001F7FCC00000000
(1788185475.427198) can0 0CF00400#5E7D7F0000000F7D
(1788185475.429594) can0 0CFE6CEE#001F7FCC00000000
(1788185475.445860) can0 18FEEE00#36FFFFFFFFFFFFFF
(1788185475.447547) can0 0CF00400#5E7D7F0000000F7D
(1788185475.449896) can0 0CFE6CEE#001F7FCC00000000
(1788185475.450452) can0 18FEFC17#FF710000FFFFFFFF
(1788185475.467289) can0 0CF00400#5E7D7F0000000F7D
(1788185475.469611) can0 0CFE6CEE#001F7FCC00000000
(1788185475.487278) can0 0CF00400#5E7D7F0000000F7D
(1788185475.489567) can0 0CFE6CEE#001F7FCC00000000
(1788185475.496501) can0 18FEF200#00000000F80EFFFF
(1788185475.507052) can0 0CF00400#5E7D7F0000000F7D
(1788185475.509464) can0 0CFE6CEE#001F7FCC00000000
(1788185475.527119) can0 0CF00400#5E7D7F0000000F7D
(1788185475.529415) can0 0CFE6CEE#001F7FCC00000000
(1788185475.536593) can0 18FEF500#C9FFFFFFFFFFFFFF
(1788185475.547040) can0 0CF00400#5E7D7F0000000F7D
(1788185475.549463) can0 0CFE6CEE#001F7FCC00000000
(1788185475.567223) can0 0CF00400#5E7D7F0000000F7D
(1788185475.569571) can0 0CFE6CEE#001F7FCC00000000
(1788185475.587274) can0 0CF00400#5E7D7F0000000F7D
(1788185475.589671) can0 0CFE6CEE#001F7FCC00000000
(1788185475.596586) can0 18FEF200#00000000F70EFFFF
(1788185475.606381) can0 18FECA00#43FFFB000201FFFF
(1788185475.607280) can0 0CF00400#5E7D7F0000000F7D
(1788185475.609588) can0 0CFE6CEE#001F7FCC00000000
(1788185475.627230) can0 0CF00400#5E7D7F0000000F7D
(1788185475.629647) can0 0CFE6CEE#001F7FCC00000000
(1788185475.647261) can0 0CF00400#5E7D7F0000000F7D
(1788185475.649638) can0 0CFE6CEE#001F7FCC00000000
(1788185475.667221) can0 0CF00400#5E7D7F0000000F7D
(1788185475.669657) can0 0CFE6CEE#001F7FCC00000000
(1788185475.687313) can0 0CF00400#5E7D7F0000000F7D
(1788185475.689651) can0 0CFE6CEE#001F7FCC00000000
(1788185475.696607) can0 18FEF200#00000000F70EFFFF
(1788185475.707248) can0 0CF00400#5E7D7F0000000F7D
(1788185475.709756) can0 0CFE6CEE#001F7FCC00000000
(1788185475.727162) can0 0CF00400#5E7D7F0000000F7D
(1788185475.730124) can0 0CFE6CEE#001F7FCC00000000
(1788185475.747259) can0 0CF00400#5E7D7F0000000F7D
(1788185475.749758) can0 0CFE6CEE#001F7FCC00000000
(1788185475.766445) can0 18FEEF00#FAFFFF00FFFFFFFF
(1788185475.767549) can0 0CF00400#5E7D7F0000000F7D
(1788185475.769771) can0 0CFE6CEE#001F7FCC00000000
(1788185475.779179) can0 18ECFF00#202C0007FFEBFE00
(1788185475.787269) can0 0CF00400#5E7D7F0000000F7D
(1788185475.789694) can0 18FEC1EE#482FDB0278870000
(1788185475.790194) can0 0CFE6CEE#001F7FCC00000000
(1788185475.796714) can0 18FEF200#00000000F70EFFFF
(1788185475.807248) can0 0CF00400#5E7D7F0000000F7D
(1788185475.810180) can0 0CFE6CEE#001F7FCC00000000
(1788185475.827216) can0 0CF00400#5E7D7F0000000F7D
(1788185475.830147) can0 0CFE6CEE#001F7FCC00000000
(1788185475.832009) can0 18EBFF00#0142343500002A34
(1788185475.847230) can0 0CF00400#5E7D7F0000000F7D
(1788185475.849727) can0 0CFE6CEE#001F7FCC00000000
(1788185475.867319) can0 0CF00400#5E7D7F0000000F7D
(1788185475.870168) can0 0CFE6CEE#001F7FCC00000000
(1788185475.887779) can0 0CF00400#5E7D7F0000000F7D
(1788185475.887784) can0 18EBFF00#0246206530344430
(1788185475.889991) can0 0CFE6CEE#001F7FCC00000000
(1788185475.896647) can0 18FEF200#00000000F80EFFFF
(1788185475.907284) can0 0CF00400#5E7D7F0000000F7D
(1788185475.909994) can0 0CFE6CEE#001F7FCC00000000
(1788185475.927645) can0 0CF00400#5E7D7F0000000F7D
(1788185475.930196) can0 0CFE6CEE#001F7FCC00000000
(1788185475.945002) can0 18EBFF00#0333382020202020
(1788185475.947631) can0 0CF00400#5E7D7F0000000F7D
(1788185475.949894) can0 0CFE6CEE#001F7FCC00000000
(1788185475.967264) can0 0CF00400#5E7D7F0000000F7D
(1788185475.970080) can0 0CFE6CEE#001F7FCC00000000
(1788185475.987400) can0 0CF00400#5E7D7F0000000F7D
(1788185475.990200) can0 0CFE6CEE#001F7FCC00000000
(1788185475.996661) can0 18FEF200#00000000F70EFFFF
(1788185475.998409) can0 18EBFF00#0420202A30303030
(1788185476.007254) can0 0CF00400#5E7D7F0000000F7D
(1788185476.009946) can0 0CFE6CEE#001F7FCC00000000
(1788185476.027236) can0 0CF00400#5E7D7F0000000F7D
(1788185476.030168) can0 0CFE6CEE#001F7FCC00000000
(1788185476.047209) can0 0CF00400#5E7D7F0000000F7D
(1788185476.050290) can0 0CFE6CEE#001F7FCC00000000
(1788185476.051414) can0 18EBFF00#05303030302A2A2A
(1788185476.067336) can0 0CF00400#5E7D7F0000000F7D
(1788185476.070311) can0 0CFE6CEE#001F7FCC00000000
(1788185476.087223) can0 0CF00400#5E7D7F0000000F7D
(1788185476.090208) can0 0CFE6CEE#001F7FCC00000000
(1788185476.096538) can0 18FEF200#00000000F70EFFFF
(1788185476.107244) can0 0CF00400#5E7D7F0000000F7D
(1788185476.107832) can0 18EBFF00#062A2A2A2A2A2A2A
(1788185476.110210) can0 0CFE6CEE#001F7FCC00000000
(1788185476.127238) can0 0CF00400#5E7D7F0000000F7D
(1788185476.130168) can0 0CFE6CEE#001F7FCC00000000
(1788185476.147640) can0 0CF00400#5E7D7F0000000F7D
(1788185476.150193) can0 0CFE6CEE#001F7FCC00000000
(1788185476.164932) can0 18EBFF00#072A2AFFFFFFFFFF
(1788185476.167289) can0 0CF00400#5E7D7F0000000F7D
(1788185476.170021) can0 0CFE6CEE#001F7FCC00000000
(1788185476.187290) can0 0CF00400#5E7D7F0000000F7D
(1788185476.190215) can0 0CFE6CEE#001F7FCC00000000
(1788185476.196730) can0 18FEF200#00000000F70EFFFF
(1788185476.207253) can0 0CF00400#5E7D7F0000000F7D
(1788185476.210421) can0 0CFE6CEE#001F7FCC00000000
(1788185476.227624) can0 0CF00400#5E7D7F0000000F7D
(1788185476.230190) can0 0CFE6CEE#001F7FCC00000000
(1788185476.247356) can0 0CF00400#5E7D7F0000000F7D
(1788185476.250492) can0 0CFE6CEE#001F7FCC00000000
(1788185476.266376) can0 18FEEF00#FAFFFF00FFFFFFFF
(1788185476.267676) can0 0CF00400#5E7D7F0000000F7D
(1788185476.270482) can0 0CFE6CEE#001F7FCC00000000
(1788185476.287345) can0 0CF00400#5E7D7F0000000F7D
(1788185476.290463) can0 0CFE6CEE#001F7FCC00000000
(1788185476.296742) can0 18FEF200#00000000F80EFFFF
(1788185476.307265) can0 0CF00400#5E7D7F0000000F7D
(1788185476.310413) can0 0CFE6CEE#001F7FCC00000000
(1788185476.327682) can0 0CF00400#5E7D7F0000000F7D
(1788185476.330165) can0 0CFE6CEE#001F7FCC00000000
(1788185476.347270) can0 0CF00400#5E7D7F0000000F7D
(1788185476.350215) can0 0CFE6CEE#001F7FCC00000000
(1788185476.367289) can0 0CF00400#5E7D7F0000000F7D
(1788185476.370529) can0 0CFE6CEE#001F7FCC00000000
(1788185476.387422) can0 0CF00400#5E7D7F0000000F7D
(1788185476.390158) can0 0CFE6CEE#001F7FCC00000000
(1788185476.396787) can0 18FEF200#00000000F70EFFFF
(1788185476.401273) can0 18FEF700#FFFFFFFFE501FFFF
(1788185476.407244) can0 0CF00400#5E7D7F0000000F7D
(1788185476.410256) can0 0CFE6CEE#001F7FCC00000000
(1788185476.427322) can0 0CF00400#5E7D7F0000000F7D
(1788185476.430206) can0 0CFE6CEE#001F7FCC00000000
(1788185476.446058) can0 18FEEE00#36FFFFFFFFFFFFFF
(1788185476.447731) can0 0CF00400#5E7D7F0000000F7D
(1788185476.449981) can0 18FEFC17#FF710000FFFFFFFF
(1788185476.450694) can0 0CFE6CEE#001F7FCC00000000
(1788185476.467262) can0 0CF00400#5E7D7F0000000F7D
(1788185476.470137) can0 0CFE6CEE#001F7FCC00000000
(1788185476.487483) can0 0CF00400#5E7D7F0000000F7D
(1788185476.490246) can0 0CFE6CEE#001F7FCC00000000
(1788185476.496743) can0 18FEF200#00000000F70EFFFF
(1788185476.507265) can0 0CF00400#5E7D7F0000000F7D
(1788185476.510234) can0 0CFE6CEE#001F7FCC00000000
(1788185476.527294) can0 0CF00400#5E7D7F0000000F7D
(1788185476.530234) can0 0CFE6CEE#001F7FCC00000000
(1788185476.536758) can0 18FEF500#C9FFFFFFFFFFFFFF
(1788185476.547252) can0 0CF00400#5E7D7F0000000F7D
(1788185476.550202) can0 0CFE6CEE#001F7FCC00000000
(1788185476.567230) can0 0CF00400#5E7D7F0000000F7D
(1788185476.570200) can0 0CFE6CEE#001F7FCC00000000
(1788185476.587328) can0 0CF00400#5E7D7F0000000F7D
(1788185476.590133) can0 0CFE6CEE#001F7FCC00000000
(1788185476.596788) can0 18FEF200#00000000F70EFFFF
(1788185476.606533) can0 18FECA00#43FFFB000201FFFF
(1788185476.607411) can0 0CF00400#5E7D7F0000000F7D
(1788185476.610224) can0 0CFE6CEE#001F7FCC00000000
(1788185476.627299) can0 0CF00400#5E7D7F0000000F7D
(1788185476.630343) can0 0CFE6CEE#001F7FCC00000000
(1788185476.647369) can0 0CF00400#5E7D7F0000000F7D
(1788185476.650287) can0 0CFE6CEE#001F7FCC00000000
(1788185476.667359) can0 0CF00400#5E7D7F0000000F7D
(1788185476.670309) can0 0CFE6CEE#001F7FCC00000000
(1788185476.687466) can0 0CF00400#5E7D7F0000000F7D
(1788185476.690338) can0 0CFE6CEE#001F7FCC00000000
(1788185476.696712) can0 18FEF200#00000000F80EFFFF
(1788185476.707170) can0 0CF00400#5E7D7F0000000F7D
(1788185476.710335) can0 0CFE6CEE#001F7FCC00000000
(1788185476.727357) can0 0CF00400#5E7D7F0000000F7D
(1788185476.730378) can0 0CFE6CEE#001F7FCC00000000
(1788185476.747325) can0 0CF00400#5E7D7F0000000F7D
(1788185476.750399) can0 0CFE6CEE#001F7FCC00000000
(1788185476.766509) can0 18FEEF00#FAFFFF00FFFFFFFF
(1788185476.767682) can0 0CF00400#5E7D7F0000000F7D
(1788185476.770387) can0 0CFE6CEE#001F7FCC00000000
(1788185476.779194) can0 18ECFF00#202C0007FFEBFE00
(1788185476.787360) can0 0CF00400#5E7D7F0000000F7D
(1788185476.790244) can0 18FEC1EE#482FDB0278870000
(1788185476.791595) can0 0CFE6CEE#001F7FCC00000000
(1788185476.796924) can0 18FEF200#00000000F70EFFFF
(1788185476.807235) can0 0CF00400#5E7D7F0000000F7D
(1788185476.810792) can0 0CFE6CEE#001F7FCC00000000
(1788185476.827447) can0 0CF00400#5E7D7F0000000F7D
(1788185476.830312) can0 0CFE6CEE#001F7FCC00000000
(1788185476.832088) can0 18EBFF00#0142343500002A34
(1788185476.847277) can0 0CF00400#5E7D7F0000000F7D
(1788185476.850506) can0 0CFE6CEE#001F7FCC00000000
(1788185476.867375) can0 0CF00400#5E7D7F0000000F7D
(1788185476.870825) can0 0CFE6CEE#001F7FCC00000000
(1788185476.887288) can0 0CF00400#5E7D7F0000000F7D
(1788185476.888166) can0 18EBFF00#0246206530344430
(1788185476.890349) can0 0CFE6CEE#001F7FCC00000000
(1788185476.896795) can0 18FEF200#00000000F70EFFFF
(1788185476.907306) can0 0CF00400#5E7D7F0000000F7D
(1788185476.910700) can0 0CFE6CEE#001F7FCC00000000
(1788185476.927227) can0 0CF00400#5E7D7F0000000F7D
(1788185476.930410) can0 0CFE6CEE#001F7FCC00000000
(1788185476.945001) can0 18EBFF00#0333382020202020
(1788185476.947737) can0 0CF00400#5E7D7F0000000F7D
(1788185476.950586) can0 0CFE6CEE#001F7FCC00000000
(1788185476.967394) can0 0CF00400#5E7D7F0000000F7D
(1788185476.970675) can0 0CFE6CEE#001F7FCC00000000
(1788185476.987429) can0 0CF00400#5E7D7F0000000F7D
(1788185476.990549) can0 0CFE6CEE#001F7FCC00000000
(1788185476.996685) can0 18FEF200#00000000F70EFFFF
(1788185476.998876) can0 18EBFF00#0420202A30303030
(1788185477.007263) can0 0CF00400#5E7D7F0000000F7D
(1788185477.010601) can0 0CFE6CEE#001F7FCC00000000
(1788185477.027704) can0 0CF00400#5E7D7F0000000F7D
(1788185477.030601) can0 0CFE6CEE#001F7FCC00000000
(1788185477.047679) can0 0CF00400#5E7D7F0000000F7D
(1788185477.050650) can0 0CFE6CEE#001F7FCC00000000
(1788185477.052090) can0 18EBFF00#05303030302A2A2A
(1788185477.067286) can0 0CF00400#5E7D7F0000000F7D
(1788185477.070877) can0 0CFE6CEE#001F7FCC00000000
(1788185477.087503) can0 0CF00400#5E7D7F0000000F7D
(1788185477.090643) can0 0CFE6CEE#001F7FCC00000000
(1788185477.096847) can0 18FEF200#00000000F80EFFFF
(1788185477.107250) can0 0CF00400#5E7D7F0000000F7D
(1788185477.107925) can0 18EBFF00#062A2A2A2A2A2A2A
(1788185477.110599) can0 0CFE6CEE#001F7FCC00000000
(1788185477.127430) can0 0CF00400#5E7D7F0000000F7D
(1788185477.130614) can0 0CFE6CEE#001F7FCC00000000
(1788185477.147229) can0 0CF00400#5E7D7F0000000F7D
(1788185477.150658) can0 0CFE6CEE#001F7FCC00000000
(1788185477.158342) can0 18FEF200#00000000F70EFFFF
(1788185477.165068) can0 18EBFF00#072A2AFFFFFFFFFF
(1788185477.167294) can0 0CF00400#5E7D7F0000000F7D
(1788185477.170824) can0 0CFE6CEE#001F7FCC00000000
(1788185477.187518) can0 0CF00400#5E7D7F0000000F7D
(1788185477.190694) can0 0CFE6CEE#001F7FCC00000000
(1788185477.196669) can0 18FEF200#00000000F70EFFFF
(1788185477.207254) can0 0CF00400#5E7D7F0000000F7D
(1788185477.211007) can0 0CFE6CEE#001F7FCC00000000
(1788185477.227604) can0 0CF00400#5E7D7F0000000F7D
(1788185477.230743) can0 0CFE6CEE#001F7FCC00000000
(1788185477.247444) can0 0CF00400#5E7D7F0000000F7D
(1788185477.251026) can0 0CFE6CEE#001F7FCC00000000
(1788185477.266498) can0 18FEEF00#FAFFFF00FFFFFFFF
(1788185477.267749) can0 0CF00400#5E7D7F0000000F7D
(1788185477.271078) can0 0CFE6CEE#001F7FCC00000000
(1788185477.287813) can0 0CF00400#5E7D7F0000000F7D
(1788185477.290800) can0 0CFE6CEE#001F7FCC00000000
(1788185477.296856) can0 18FEF200#00000000F70EFFFF
(1788185477.307254) can0 0CF00400#5E7D7F0000000F7D
(1788185477.310755) can0 0CFE6CEE#001F7FCC00000000
(1788185477.327731) can0 0CF00400#5E7D7F0000000F7D
(1788185477.331172) can0 0CFE6CEE#001F7FCC00000000
(1788185477.347716) can0 0CF00400#5E7D7F0000000F7D
(1788185477.350781) can0 0CFE6CEE#001F7FCC00000000
(1788185477.367464) can0 0CF00400#5E7D7F0000000F7D
(1788185477.370865) can0 0CFE6CEE#001F7FCC00000000
(1788185477.387903) can0 0CF00400#5E7D7F0000000F7D
(1788185477.391195) can0 0CFE6CEE#001F7FCC00000000
(1788185477.396791) can0 18FEF200#00000000F70EFFFF
(1788185477.401013) can0 18FEF700#FFFFFFFFE501FFFF
